;$FILEVERSION=2.0
;$STARTTIME=46080.7450199306
;$COLUMNS=N,O,T,I,d,l,D
;
;   Start time: 2026/2/27 17:52:49.722.0
;   Generated by PCAN-View v5.0.4.860
;   Message   Time    Type ID     Rx/Tx
;   Number    Offset  |    [hex]  |  Data Length
;   |         [ms]    |    |      |  |  Data [hex] ...
;   |         |       |    |      |  |  |
;---+-- ------+------ +- --+----- +- +- +- +- -- -- -- -- -- -- --
      1      9870.943 DT     07A2 Rx 8  02 10 60 00 00 00 00 00 
      2      9872.362 DT     07AA Rx 8  06 50 60 00 32 01 F4 00 
      3      9874.499 DT     07A2 Rx 8  02 10 03 00 00 00 00 00 
      4      9882.276 DT     07AA Rx 8  06 50 03 00 32 01 F4 00 
      5      9984.477 DT     07A2 Rx 8  02 27 03 00 00 00 00 00 
      6      9992.308 DT     07AA Rx 8  06 67 03 FD 42 81 88 00 
      7      9993.659 DT     07A2 Rx 8  06 27 04 B0 44 51 BF 00 
      8     10002.300 DT     07AA Rx 8  02 67 04 00 00 00 00 00 
      9     10005.427 DT     07A2 Rx 8  10 0D 31 01 02 04 44 00 
     10     10006.219 DT     07AA Rx 8  30 00 00 00 00 00 00 00 
     11     10007.542 DT     07A2 Rx 8  21 01 00 00 00 01 23 A0 
     12     10509.787 DT     07AA Rx 8  04 71 01 02 04 00 00 00 
     13     10513.241 DT     07A2 Rx 8  10 0B 34 00 44 00 01 00 
     14     10514.186 DT     07AA Rx 8  30 00 00 00 00 00 00 00 
     15     10515.464 DT     07A2 Rx 8  21 00 00 01 23 A0 00 00 
     16     10519.274 DT     07AA Rx 8  01 74 00 00 00 00 00 00 
     17     10522.917 DT     07A2 Rx 8  12 02 36 01 32 30 32 36 
     18     10523.254 DT     07AA Rx 8  30 00 00 00 00 00 00 00 
     19     10524.949 DT     07A2 Rx 8  21 30 32 32 37 20 20 31 
     20     10525.193 DT     07A2 Rx 8  22 37 34 36 35 34 40 43 
     21     10525.439 DT     07A2 Rx 8  23 41 4C 30 23 01 00 40 
     22     10525.784 DT     07A2 Rx 8  24 00 01 01 80 00 00 00 
     23     10526.073 DT     07A2 Rx 8  25 08 00 00 00 40 00 00 
     24     10526.331 DT     07A2 Rx 8  26 00 20 00 00 00 30 04 
     25     10526.644 DT     07A2 Rx 8  27 00 00 00 00 00 00 00 
     26     10526.890 DT     07A2 Rx 8  28 00 00 00 00 00 00 00 
     27     10527.128 DT     07A2 Rx 8  29 00 1F 01 00 03 00 00 
     28     10527.383 DT     07A2 Rx 8  2A 00 30 04 00 00 00 1F 
     29     10527.708 DT     07A2 Rx 8  2B 01 00 00 00 00 00 9C 
     30     10527.996 DT     07A2 Rx 8  2C 3D 17 31 14 48 71 BB 
     31     10528.284 DT     07A2 Rx 8  2D E5 33 85 5E 7D 04 31 
     32     10528.749 DT     07A2 Rx 8  2E E8 51 3F D0 E9 44 8A 
     33     10529.150 DT     07A2 Rx 8  2F 57 D1 83 1A 7E 5E ED 
     34     10529.573 DT     07A2 Rx 8  20 80 CB 7F 00 00 00 00 
     35     10529.757 DT     07A2 Rx 8  21 00 00 00 00 00 00 00 
     36     10529.880 DT     07A2 Rx 8  22 00 00 00 00 00 35 1A 
     37     10530.000 DT     07A2 Rx 8  23 DA 8E 7A BB 65 46 24 
     38     10530.118 DT     07A2 Rx 8  24 AE E2 D6 1E E8 BA 18 
     39     10530.234 DT     07A2 Rx 8  25 90 49 B9 90 CE C2 9E 
     40     10530.350 DT     07A2 Rx 8  26 6F C4 E0 3E 82 B2 E5 
     41     10530.473 DT     07A2 Rx 8  27 A7 35 43 43 46 47 00 
     42     10530.587 DT     07A2 Rx 8  28 00 02 00 04 00 00 00 
     43     10530.768 DT     07A2 Rx 8  29 C0 FB 0E 21 A0 03 00 
     44     10530.874 DT     07A2 Rx 8  2A 00 04 00 08 00 00 10 
     45     10530.968 DT     07A2 Rx 8  2B 0E 00 C0 C6 2D 00 01 
     46     10531.061 DT     07A2 Rx 8  2C 00 00 00 00 00 00 00 
     47     10531.153 DT     07A2 Rx 8  2D 00 00 55 55 00 00 55 
     48     10531.245 DT     07A2 Rx 8  2E 55 00 00 55 55 00 00 
     49     10531.335 DT     07A2 Rx 8  2F 00 00 00 00 55 55 00 
     50     10531.434 DT     07A2 Rx 8  20 00 55 55 00 00 55 55 
     51     10531.525 DT     07A2 Rx 8  21 55 55 55 55 55 55 55 
     52     10531.614 DT     07A2 Rx 8  22 55 00 00 00 00 00 00 
     53     10531.704 DT     07A2 Rx 8  23 EB 58 C0 00 04 2F 00 
     54     10531.794 DT     07A2 Rx 8  24 00 00 00 00 00 00 00 
     55     10531.884 DT     07A2 Rx 8  25 51 00 01 02 02 01 35 
     56     10531.976 DT     07A2 Rx 8  26 00 00 00 00 00 00 00 
     57     10532.064 DT     07A2 Rx 8  27 00 00 51 00 00 00 00 
     58     10532.154 DT     07A2 Rx 8  28 01 06 00 00 00 00 00 
     59     10532.244 DT     07A2 Rx 8  29 00 00 00 00 51 01 01 
     60     10532.332 DT     07A2 Rx 8  2A 02 02 01 05 00 00 00 
     61     10532.466 DT     07A2 Rx 8  2B 00 00 00 00 00 00 51 
     62     10532.798 DT     07A2 Rx 8  2C 00 00 00 00 02 31 02 
     63     10533.085 DT     07A2 Rx 8  2D 00 00 00 00 00 00 00 
     64     10533.311 DT     07A2 Rx 8  2E 00 50 01 01 00 01 01 
     65     10533.629 DT     07A2 Rx 8  2F 05 00 00 00 00 00 00 
     66     10533.930 DT     07A2 Rx 8  20 00 00 00 50 00 00 00 
     67     10534.249 DT     07A2 Rx 8  21 00 01 04 00 00 00 00 
     68     10534.402 DT     07A2 Rx 8  22 00 00 00 00 00 50 01 
     69     10534.632 DT     07A2 Rx 8  23 01 00 01 01 05 00 00 
     70     10534.820 DT     07A2 Rx 8  24 00 00 00 00 00 00 00 
     71     10535.001 DT     07A2 Rx 8  25 00 00 00 00 00 00 00 
     72     10535.180 DT     07A2 Rx 8  26 00 00 00 00 00 00 00 
     73     10535.359 DT     07A2 Rx 8  27 00 00 00 00 00 00 00 
     74     10535.672 DT     07A2 Rx 8  28 00 00 00 00 00 00 00 
     75     10535.814 DT     07A2 Rx 8  29 00 00 00 00 00 00 00 
     76     10535.933 DT     07A2 Rx 8  2A 00 00 00 00 00 00 00 
     77     10536.050 DT     07A2 Rx 8  2B 00 00 00 00 00 00 00 
     78     10536.165 DT     07A2 Rx 8  2C 00 00 00 00 00 00 00 
     79     10536.279 DT     07A2 Rx 8  2D 00 00 00 00 00 00 00 
     80     10536.393 DT     07A2 Rx 8  2E 00 00 00 00 00 00 00 
     81     10536.631 DT     07A2 Rx 8  2F 00 00 00 00 00 00 00 
     82     10536.859 DT     07A2 Rx 8  20 00 00 00 00 00 00 00 
     83     10537.073 DT     07A2 Rx 8  21 00 00 00 00 00 00 00 
     84     10537.279 DT     07A2 Rx 8  22 00 00 00 00 00 00 02 
     85     10537.639 DT     07A2 Rx 8  23 5F 00 3F 00 00 00 02 
     86     10538.073 DT     07A2 Rx 8  24 00 00 00 02 00 00 00 
     87     10538.393 DT     07A2 Rx 8  25 02 00 00 00 19 32 00 
     88     10538.685 DT     07A2 Rx 8  26 00 00 00 00 00 00 00 
     89     10538.901 DT     07A2 Rx 8  27 00 00 EB 00 DF 04 03 
     90     10539.112 DT     07A2 Rx 8  28 00 00 00 00 00 00 00 
     91     10539.327 DT     07A2 Rx 8  29 00 00 00 00 00 00 00 
     92     10549.287 DT     07AA Rx 8  02 76 01 00 00 00 00 00 
     93     10551.672 DT     07A2 Rx 8  12 02 36 02 00 00 00 00 
     94     10552.181 DT     07AA Rx 8  30 00 00 00 00 00 00 00 
     95     10553.528 DT     07A2 Rx 8  21 00 00 00 00 00 00 00 
     96     10553.741 DT     07A2 Rx 8  22 00 00 00 00 00 00 00 
     97     10553.962 DT     07A2 Rx 8  23 00 00 00 00 00 00 00 
     98     10554.144 DT     07A2 Rx 8  24 00 00 00 00 00 00 00 
     99     10554.274 DT     07A2 Rx 8  25 05 00 07 00 06 00 44 
    100     10554.396 DT     07A2 Rx 8  26 00 07 00 01 00 09 00 
    101     10554.513 DT     07A2 Rx 8  27 07 00 0A 00 44 00 0B 
    102     10554.628 DT     07A2 Rx 8  28 00 01 00 0C 00 04 00 
    103     10554.743 DT     07A2 Rx 8  29 0D 00 01 00 0E 00 04 
    104     10554.856 DT     07A2 Rx 8  2A 00 0F 00 01 00 10 00 
    105     10555.079 DT     07A2 Rx 8  2B 04 00 11 00 01 00 12 
    106     10555.215 DT     07A2 Rx 8  2C 00 04 00 13 00 01 00 
    107     10555.333 DT     07A2 Rx 8  2D 14 00 04 00 15 00 01 
    108     10555.450 DT     07A2 Rx 8  2E 00 16 00 04 00 17 00 
    109     10555.566 DT     07A2 Rx 8  2F 01 00 18 00 04 00 64 
    110     10555.683 DT     07A2 Rx 8  20 01 01 00 65 01 04 00 
    111     10555.801 DT     07A2 Rx 8  21 60 01 04 00 62 01 04 
    112     10555.917 DT     07A2 Rx 8  22 00 68 01 04 00 66 01 
    113     10556.136 DT     07A2 Rx 8  23 04 00 6A 01 04 00 B7 
    114     10556.321 DT     07A2 Rx 8  24 01 03 00 E8 83 00 00 
    115     10556.576 DT     07A2 Rx 8  25 21 00 F3 00 23 00 08 
    116     10556.710 DT     07A2 Rx 8  26 00 24 00 1F 00 26 00 
    117     10556.830 DT     07A2 Rx 8  27 01 00 27 00 C3 00 29 
    118     10556.975 DT     07A2 Rx 8  28 00 83 00 28 00 97 00 
    119     10557.146 DT     07A2 Rx 8  29 28 00 9F 00 0A 80 00 
    120     10557.313 DT     07A2 Rx 8  2A 00 28 00 8F 00 0A 80 
    121     10557.431 DT     07A2 Rx 8  2B 00 00 28 00 9F 00 28 
    122     10557.527 DT     07A2 Rx 8  2C 00 97 00 C5 02 10 00 
    123     10557.621 DT     07A2 Rx 8  2D C6 02 27 00 C7 02 00 
    124     10557.711 DT     07A2 Rx 8  2E 00 C8 02 00 00 C9 02 
    125     10557.801 DT     07A2 Rx 8  2F 03 00 CA 02 00 00 CB 
    126     10557.893 DT     07A2 Rx 8  20 02 00 00 CC 02 00 00 
    127     10558.034 DT     07A2 Rx 8  21 CE 02 07 00 C4 02 1A 
    128     10558.134 DT     07A2 Rx 8  22 00 D0 02 00 00 D0 02 
    129     10558.227 DT     07A2 Rx 8  23 04 00 D0 02 05 00 D0 
    130     10558.322 DT     07A2 Rx 8  24 02 07 00 E8 83 00 00 
    131     10558.414 DT     07A2 Rx 8  25 A0 8F 01 00 D1 22 02 
    132     10558.504 DT     07A2 Rx 8  26 02 24 00 0B 00 D0 01 
    133     10558.593 DT     07A2 Rx 8  27 01 00 D2 01 01 00 D4 
    134     10558.684 DT     07A2 Rx 8  28 01 01 00 00 F0 00 00 
    135     10558.777 DT     07A2 Rx 8  29 00 F0 00 00 00 F0 00 
    136     10558.866 DT     07A2 Rx 8  2A 00 00 F0 00 00 00 F0 
    137     10558.988 DT     07A2 Rx 8  2B 00 00 00 F0 00 00 00 
    138     10559.094 DT     07A2 Rx 8  2C F0 00 00 00 F0 00 00 
    139     10559.186 DT     07A2 Rx 8  2D 00 F0 00 00 00 F0 00 
    140     10559.658 DT     07A2 Rx 8  2E 00 00 F0 00 00 00 F0 
    141     10559.934 DT     07A2 Rx 8  2F 00 00 00 F0 00 00 00 
    142     10560.093 DT     07A2 Rx 8  20 F0 00 00 00 F0 00 00 
    143     10560.193 DT     07A2 Rx 8  21 00 F0 00 00 00 F0 00 
    144     10560.287 DT     07A2 Rx 8  22 00 00 F0 00 00 00 F0 
    145     10560.442 DT     07A2 Rx 8  23 00 00 00 F0 00 00 00 
    146     10560.535 DT     07A2 Rx 8  24 F0 00 00 00 F0 00 00 
    147     10560.625 DT     07A2 Rx 8  25 00 F0 00 00 00 F0 00 
    148     10560.715 DT     07A2 Rx 8  26 00 00 F0 00 00 00 F0 
    149     10560.805 DT     07A2 Rx 8  27 00 00 00 F0 00 00 00 
    150     10560.896 DT     07A2 Rx 8  28 F0 00 00 00 F0 00 00 
    151     10561.026 DT     07A2 Rx 8  29 00 F0 00 00 00 F0 00 
    152     10561.121 DT     07A2 Rx 8  2A 00 00 F0 00 00 00 F0 
    153     10561.213 DT     07A2 Rx 8  2B 00 00 00 F0 00 00 00 
    154     10561.303 DT     07A2 Rx 8  2C F0 00 00 00 F0 00 00 
    155     10561.392 DT     07A2 Rx 8  2D 00 F0 00 00 00 F0 00 
    156     10561.481 DT     07A2 Rx 8  2E 00 00 F0 00 00 00 F0 
    157     10561.659 DT     07A2 Rx 8  2F 00 00 00 F0 00 00 00 
    158     10561.765 DT     07A2 Rx 8  20 F0 00 00 00 F0 00 00 
    159     10561.857 DT     07A2 Rx 8  21 00 F0 00 00 00 F0 00 
    160     10562.017 DT     07A2 Rx 8  22 00 00 F0 00 00 00 F0 
    161     10562.122 DT     07A2 Rx 8  23 00 00 00 F0 00 00 00 
    162     10562.214 DT     07A2 Rx 8  24 F0 00 00 00 F0 00 00 
    163     10562.304 DT     07A2 Rx 8  25 00 F0 00 00 00 F0 00 
    164     10562.395 DT     07A2 Rx 8  26 00 00 F0 00 00 00 F0 
    165     10562.485 DT     07A2 Rx 8  27 00 00 00 F0 00 00 00 
    166     10562.574 DT     07A2 Rx 8  28 F0 00 00 00 F0 00 00 
    167     10562.666 DT     07A2 Rx 8  29 00 F0 00 00 00 00 00 
    168     10579.276 DT     07AA Rx 8  02 76 02 00 00 00 00 00 
    169     10581.612 DT     07A2 Rx 8  12 02 36 03 00 F0 00 00 
    170     10582.170 DT     07AA Rx 8  30 00 00 00 00 00 00 00 
    171     10583.519 DT     07A2 Rx 8  21 00 F0 00 00 00 F0 00 
    172     10583.715 DT     07A2 Rx 8  22 00 00 F0 00 00 00 F0 
    173     10583.902 DT     07A2 Rx 8  23 00 00 00 F0 00 00 00 
    174     10584.088 DT     07A2 Rx 8  24 F0 00 00 00 F0 00 00 
    175     10584.329 DT     07A2 Rx 8  25 00 F0 00 00 00 F0 00 
    176     10584.547 DT     07A2 Rx 8  26 00 00 F0 00 00 00 F0 
    177     10584.732 DT     07A2 Rx 8  27 00 00 00 F0 00 00 00 
    178     10584.920 DT     07A2 Rx 8  28 F0 00 00 00 F0 00 00 
    179     10585.101 DT     07A2 Rx 8  29 00 F0 00 00 04 00 0F 
    180     10585.364 DT     07A2 Rx 8  2A 21 0D 00 00 00 4A 26 
    181     10585.690 DT     07A2 Rx 8  2B 00 70 00 04 01 00 6A 
    182     10586.236 DT     07A2 Rx 8  2C 20 00 01 41 28 00 02 
    183     10586.605 DT     07A2 Rx 8  2D 4C 20 40 80 E0 20 81 
    184     10586.935 DT     07A2 Rx 8  2E 0F 0F 21 3C 04 4A 20 
    185     10587.143 DT     07A2 Rx 8  2F 00 00 4A 21 00 00 4A 
    186     10587.354 DT     07A2 Rx 8  20 22 00 00 4A 23 00 00 
    187     10587.566 DT     07A2 Rx 8  21 4A 24 00 00 4A 25 00 
    188     10587.759 DT     07A2 Rx 8  22 00 4A 26 00 00 4A 27 
    189     10587.943 DT     07A2 Rx 8  23 00 00 4A 20 00 10 4A 
    190     10588.138 DT     07A2 Rx 8  24 21 00 10 4A 22 00 10 
    191     10588.346 DT     07A2 Rx 8  25 4A 23 00 10 4A 24 00 
    192     10588.476 DT     07A2 Rx 8  26 10 4A 25 00 10 4A 26 
    193     10588.594 DT     07A2 Rx 8  27 00 10 4A 27 00 10 4A 
    194     10588.716 DT     07A2 Rx 8  28 20 00 20 4A 21 00 20 
    195     10588.928 DT     07A2 Rx 8  29 4A 22 00 20 4A 23 00 
    196     10589.063 DT     07A2 Rx 8  2A 20 4A 24 00 20 4A 25 
    197     10589.267 DT     07A2 Rx 8  2B 00 20 4A 26 00 20 4A 
    198     10589.425 DT     07A2 Rx 8  2C 27 00 20 4A 20 00 30 
    199     10589.524 DT     07A2 Rx 8  2D 4A 21 00 30 4A 22 00 
    200     10589.616 DT     07A2 Rx 8  2E 30 4A 23 00 30 4A 24 
    201     10589.707 DT     07A2 Rx 8  2F 00 30 4A 25 00 30 4A 
    202     10589.797 DT     07A2 Rx 8  20 26 00 30 4A 27 00 30 
    203     10589.887 DT     07A2 Rx 8  21 4A 22 00 70 4A 23 00 
    204     10589.977 DT     07A2 Rx 8  22 70 8A 20 01 08 AB 20 
    205     10590.066 DT     07A2 Rx 8  23 01 02 4A 20 40 00 AB 
    206     10590.155 DT     07A2 Rx 8  24 20 C1 01 AA 20 01 02 
    207     10590.243 DT     07A2 Rx 8  25 FD 08 1F 82 4A 20 00 
    208     10590.330 DT     07A2 Rx 8  26 00 6B 20 40 04 E0 78 
    209     10590.419 DT     07A2 Rx 8  27 6B 20 00 04 E0 78 E0 
    210     10590.506 DT     07A2 Rx 8  28 78 E0 78 4A 22 00 00 
    211     10590.595 DT     07A2 Rx 8  29 0A 20 80 0F 00 80 00 
    212     10590.683 DT     07A2 Rx 8  2A 04 0A 23 80 0F 00 80 
    213     10590.771 DT     07A2 Rx 8  2B C0 3B 04 18 90 00 04 
    214     10590.871 DT     07A2 Rx 8  2C 18 90 00 04 18 90 00 
    215     10590.976 DT     07A2 Rx 8  2D 04 18 90 00 04 18 90 
    216     10591.069 DT     07A2 Rx 8  2E 00 04 18 90 00 04 18 
    217     10591.160 DT     07A2 Rx 8  2F 90 00 04 18 90 00 0C 
    218     10591.250 DT     07A2 Rx 8  20 20 C0 80 E0 20 8B 0F 
    219     10591.339 DT     07A2 Rx 8  21 0F 21 EC 00 0A 22 80 
    220     10591.428 DT     07A2 Rx 8  22 0F 00 80 C0 3B 42 22 
    221     10591.517 DT     07A2 Rx 8  23 02 02 00 12 03 00 4A 
    222     10591.606 DT     07A2 Rx 8  24 20 00 00 6F 27 3F 00 
    223     10591.694 DT     07A2 Rx 8  25 AB 20 C1 00 6B 20 80 
    224     10591.782 DT     07A2 Rx 8  26 03 AB 20 48 00 6B 26 
    225     10591.870 DT     07A2 Rx 8  27 40 79 0F 21 00 08 0A 
    226     10591.958 DT     07A2 Rx 8  28 24 80 3F 00 80 C0 3B 
    227     10592.046 DT     07A2 Rx 8  29 0A 22 80 3F 10 21 C0 
    228     10592.184 DT     07A2 Rx 8  2A 07 4A 23 00 30 0A 20 
    229     10592.295 DT     07A2 Rx 8  2B 80 0F 0F 21 80 0A 0A 
    230     10592.390 DT     07A2 Rx 8  2C 21 80 0F 0F 21 80 0A 
    231     10592.481 DT     07A2 Rx 8  2D 0C 20 40 80 E0 20 81 
    232     10592.571 DT     07A2 Rx 8  2E 0F 0F 21 90 01 0A 23 
    233     10592.661 DT     07A2 Rx 8  2F 80 0F 0F 21 1A DD 04 
    234     10592.752 DT     07A2 Rx 8  20 11 02 04 04 18 90 00 
    235     10592.841 DT     07A2 Rx 8  21 0C 20 C0 80 E0 20 8B 
    236     10592.931 DT     07A2 Rx 8  22 0F 0F 21 7C 01 0A 20 
    237     10593.021 DT     07A2 Rx 8  23 80 0F 0F 21 1C DD 0A 
    238     10593.120 DT     07A2 Rx 8  24 21 80 0F 0F 21 1C DD 
    239     10593.231 DT     07A2 Rx 8  25 0C 20 40 80 E0 20 81 
    240     10593.326 DT     07A2 Rx 8  26 0F 0F 21 C8 01 0A 23 
    241     10593.417 DT     07A2 Rx 8  27 80 0F 0F 21 1C DD 04 
    242     10593.509 DT     07A2 Rx 8  28 11 02 04 04 18 90 00 
    243     10593.601 DT     07A2 Rx 8  29 0C 20 C0 80 00 00 00 
    244     10609.273 DT     07AA Rx 8  02 76 03 00 00 00 00 00 
    245     10610.923 DT     07A2 Rx 8  12 02 36 04 E0 20 8B 0F 
    246     10611.236 DT     07AA Rx 8  30 00 00 00 00 00 00 00 
    247     10612.417 DT     07A2 Rx 8  21 0F 21 B4 01 0A 20 80 
    248     10612.515 DT     07A2 Rx 8  22 0F 0F 21 1C DD 0A 21 
    249     10613.015 DT     07A2 Rx 8  23 80 0F 0F 21 1C DD 0C 
    250     10613.333 DT     07A2 Rx 8  24 20 40 80 E0 20 81 0F 
    251     10613.600 DT     07A2 Rx 8  25 0F 21 00 02 0A 23 80 
    252     10613.757 DT     07A2 Rx 8  26 0F 10 21 D4 03 04 11 
    253     10613.989 DT     07A2 Rx 8  27 02 04 04 18 90 00 0C 
    254     10614.166 DT     07A2 Rx 8  28 20 C0 80 E0 20 8B 0F 
    255     10614.264 DT     07A2 Rx 8  29 0F 21 EC 01 0A 20 80 
    256     10614.355 DT     07A2 Rx 8  2A 0F 10 21 C0 07 0A 21 
    257     10614.447 DT     07A2 Rx 8  2B 80 0F 10 21 C0 07 0C 
    258     10614.539 DT     07A2 Rx 8  2C 20 40 80 E0 20 81 0F 
    259     10614.628 DT     07A2 Rx 8  2D 0F 21 38 02 0A 23 80 
    260     10614.716 DT     07A2 Rx 8  2E 0F 10 21 70 1A 04 11 
    261     10614.806 DT     07A2 Rx 8  2F 02 04 04 18 90 00 0C 
    262     10614.893 DT     07A2 Rx 8  20 20 C0 80 E0 20 8B 0F 
    263     10614.983 DT     07A2 Rx 8  21 0F 21 24 02 0A 20 80 
    264     10615.074 DT     07A2 Rx 8  22 0F 00 80 00 04 0A 21 
    265     10615.161 DT     07A2 Rx 8  23 80 0F 00 80 C0 2B 0C 
    266     10615.250 DT     07A2 Rx 8  24 20 40 80 4A 22 00 00 
    267     10615.338 DT     07A2 Rx 8  25 04 18 90 00 0C 20 40 
    268     10615.507 DT     07A2 Rx 8  26 80 0A 20 80 0F 00 80 
    269     10615.619 DT     07A2 Rx 8  27 C0 2B 0A 21 80 0F 00 
    270     10615.712 DT     07A2 Rx 8  28 80 C0 3B 0C 20 40 80 
    271     10615.804 DT     07A2 Rx 8  29 E0 20 8A 0F 0F 21 80 
    272     10616.007 DT     07A2 Rx 8  2A 02 8A 22 FF 0F 04 18 
    273     10616.150 DT     07A2 Rx 8  2B 90 00 0C 20 40 80 AA 
    274     10616.247 DT     07A2 Rx 8  2C 20 01 02 17 08 1F 00 
    275     10616.339 DT     07A2 Rx 8  2D 4A 20 40 00 AB 20 C1 
    276     10616.429 DT     07A2 Rx 8  2E 02 E0 78 AA 20 01 02 
    277     10616.520 DT     07A2 Rx 8  2F FD 08 1F 82 6A 20 40 
    278     10616.611 DT     07A2 Rx 8  20 04 0D 08 1F 00 E0 78 
    279     10616.700 DT     07A2 Rx 8  21 E0 78 E0 78 0A 20 80 
    280     10616.789 DT     07A2 Rx 8  22 0F F0 20 00 00 4A 21 
    281     10616.881 DT     07A2 Rx 8  23 00 00 04 18 50 00 04 
    282     10617.044 DT     07A2 Rx 8  24 18 50 00 04 18 50 00 
    283     10617.239 DT     07A2 Rx 8  25 04 18 50 00 04 18 50 
    284     10617.486 DT     07A2 Rx 8  26 00 0A 20 80 0F F0 20 
    285     10617.600 DT     07A2 Rx 8  27 00 00 04 10 01 04 04 
    286     10617.704 DT     07A2 Rx 8  28 10 01 04 04 10 01 04 
    287     10617.797 DT     07A2 Rx 8  29 04 10 01 04 04 10 01 
    288     10617.887 DT     07A2 Rx 8  2A 04 0A 20 80 0F 00 F1 
    289     10618.032 DT     07A2 Rx 8  2B F0 02 00 10 01 08 8C 
    290     10618.151 DT     07A2 Rx 8  2C 21 43 87 2E 01 02 00 
    291     10618.247 DT     07A2 Rx 8  2D 6A 21 C0 0F 9F B9 6B 
    292     10618.338 DT     07A2 Rx 8  2E 21 C0 0F 4A 21 80 00 
    293     10618.427 DT     07A2 Rx 8  2F 2B 21 80 0F 00 00 90 
    294     10618.518 DT     07A2 Rx 8  20 0A 4A 26 00 70 4A 26 
    295     10618.608 DT     07A2 Rx 8  21 00 70 0A 21 80 0F 55 
    296     10618.696 DT     07A2 Rx 8  22 55 56 55 2B 21 80 0F 
    297     10618.785 DT     07A2 Rx 8  23 00 00 92 0A 4A 26 00 
    298     10618.873 DT     07A2 Rx 8  24 70 4A 26 00 70 0A 22 
    299     10619.032 DT     07A2 Rx 8  25 80 0F 30 F2 38 03 4A 
    300     10619.148 DT     07A2 Rx 8  26 20 C0 00 00 1A 20 00 
    301     10619.242 DT     07A2 Rx 8  27 6F 23 3F 00 4A 26 00 
    302     10619.334 DT     07A2 Rx 8  28 70 00 12 01 08 4A 26 
    303     10619.425 DT     07A2 Rx 8  29 00 70 4A 21 80 00 2B 
    304     10619.515 DT     07A2 Rx 8  2A 21 80 0F 00 00 90 0A 
    305     10619.604 DT     07A2 Rx 8  2B 2A 21 80 0F 00 00 91 
    306     10619.694 DT     07A2 Rx 8  2C 0A 6C 21 41 00 81 B9 
    307     10619.783 DT     07A2 Rx 8  2D 2B 21 80 0F 00 00 91 
    308     10619.872 DT     07A2 Rx 8  2E 0A 4A 26 00 70 4A 26 
    309     10620.016 DT     07A2 Rx 8  2F 00 70 0A 22 80 0F 00 
    310     10620.134 DT     07A2 Rx 8  20 44 16 00 8A 23 08 00 
    311     10620.228 DT     07A2 Rx 8  21 0A 21 80 0F F0 20 40 
    312     10620.319 DT     07A2 Rx 8  22 00 42 23 43 80 43 F2 
    313     10620.409 DT     07A2 Rx 8  23 2A 20 80 0F 00 00 91 
    314     10620.498 DT     07A2 Rx 8  24 0A E2 B8 F8 F3 4A 26 
    315     10620.591 DT     07A2 Rx 8  25 00 70 00 19 E0 00 4A 
    316     10620.682 DT     07A2 Rx 8  26 26 00 70 4A 26 00 70 
    317     10620.771 DT     07A2 Rx 8  27 4A 26 00 70 0A 23 80 
    318     10620.859 DT     07A2 Rx 8  28 0F 00 F2 40 04 8A 21 
    319     10620.967 DT     07A2 Rx 8  29 FF 0F 00 1B 00 00 00 
    320     10639.263 DT     07AA Rx 8  02 76 04 00 00 00 00 00 
    321     10641.473 DT     07A2 Rx 8  12 02 36 05 60 00 6F 23 
    322     10642.170 DT     07AA Rx 8  30 00 00 00 00 00 00 00 
    323     10643.479 DT     07A2 Rx 8  21 3F 00 4A 26 00 70 0A 
    324     10643.644 DT     07A2 Rx 8  22 21 80 0F F0 20 40 00 
    325     10643.875 DT     07A2 Rx 8  23 2A 23 80 0F 00 00 94 
    326     10644.062 DT     07A2 Rx 8  24 0A 04 19 E0 00 4A 26 
    327     10644.266 DT     07A2 Rx 8  25 00 70 4C 23 00 80 3E 
    328     10644.450 DT     07A2 Rx 8  26 00 01 00 4A 21 80 00 
    329     10644.633 DT     07A2 Rx 8  27 2B 21 80 0F 00 00 90 
    330     10644.816 DT     07A2 Rx 8  28 0A 4A 26 00 70 4A 26 
    331     10644.992 DT     07A2 Rx 8  29 00 70 0A 21 80 0F 55 
    332     10645.198 DT     07A2 Rx 8  2A 95 56 55 2B 21 80 0F 
    333     10645.342 DT     07A2 Rx 8  2B 00 00 92 0A 4A 26 00 
    334     10645.505 DT     07A2 Rx 8  2C 70 4A 26 00 70 0A 20 
    335     10645.691 DT     07A2 Rx 8  2D 80 0F AD DE AF BE 00 
    336     10645.874 DT     07A2 Rx 8  2E 19 20 00 22 20 80 0F 
    337     10646.057 DT     07A2 Rx 8  2F 0F 21 20 6D 22 20 80 
    338     10646.242 DT     07A2 Rx 8  20 0F 0F 21 6C 92 4A 26 
    339     10646.431 DT     07A2 Rx 8  21 00 70 4A 26 00 70 E0 
    340     10646.606 DT     07A2 Rx 8  22 78 C3 40 00 F2 2C 05 
    341     10646.787 DT     07A2 Rx 8  23 00 10 0D 08 4A 26 00 
    342     10646.968 DT     07A2 Rx 8  24 70 4C 25 00 90 F0 07 
    343     10647.168 DT     07A2 Rx 8  25 C1 FF 4A 26 00 70 40 
    344     10647.383 DT     07A2 Rx 8  26 7D 4A 26 00 70 E1 07 
    345     10647.585 DT     07A2 Rx 8  27 CF FF 00 00 00 00 00 
    346     10647.764 DT     07A2 Rx 8  28 00 00 00 00 00 00 00 
    347     10647.943 DT     07A2 Rx 8  29 00 00 00 00 00 00 00 
    348     10648.171 DT     07A2 Rx 8  2A 00 00 00 00 00 00 00 
    349     10648.314 DT     07A2 Rx 8  2B 00 00 00 00 00 00 00 
    350     10648.500 DT     07A2 Rx 8  2C 00 00 00 00 00 00 00 
    351     10648.632 DT     07A2 Rx 8  2D 00 00 00 00 00 00 00 
    352     10648.728 DT     07A2 Rx 8  2E 00 00 00 00 00 00 00 
    353     10648.858 DT     07A2 Rx 8  2F 00 00 00 00 00 00 00 
    354     10648.951 DT     07A2 Rx 8  20 00 00 00 00 00 00 00 
    355     10649.041 DT     07A2 Rx 8  21 00 00 00 00 00 00 00 
    356     10649.131 DT     07A2 Rx 8  22 00 00 00 00 00 00 00 
    357     10649.410 DT     07A2 Rx 8  23 00 00 00 00 00 00 00 
    358     10649.659 DT     07A2 Rx 8  24 00 00 00 00 00 00 00 
    359     10649.771 DT     07A2 Rx 8  25 00 00 00 00 00 00 00 
    360     10649.862 DT     07A2 Rx 8  26 00 00 00 00 00 00 00 
    361     10649.952 DT     07A2 Rx 8  27 00 00 00 00 00 00 00 
    362     10650.042 DT     07A2 Rx 8  28 00 00 00 00 00 00 00 
    363     10650.129 DT     07A2 Rx 8  29 00 00 00 00 00 00 00 
    364     10650.219 DT     07A2 Rx 8  2A 00 00 00 00 00 00 00 
    365     10650.306 DT     07A2 Rx 8  2B 00 00 00 00 00 00 00 
    366     10650.394 DT     07A2 Rx 8  2C 00 00 00 00 00 00 00 
    367     10650.483 DT     07A2 Rx 8  2D 00 00 00 00 00 00 00 
    368     10650.570 DT     07A2 Rx 8  2E 00 00 00 00 00 00 00 
    369     10650.658 DT     07A2 Rx 8  2F 00 00 00 00 00 00 00 
    370     10650.745 DT     07A2 Rx 8  20 00 00 00 00 00 00 00 
    371     10650.833 DT     07A2 Rx 8  21 00 00 00 00 00 00 00 
    372     10650.920 DT     07A2 Rx 8  22 00 00 00 00 00 00 00 
    373     10651.007 DT     07A2 Rx 8  23 00 00 00 00 00 00 00 
    374     10651.093 DT     07A2 Rx 8  24 00 00 00 00 00 00 00 
    375     10651.204 DT     07A2 Rx 8  25 00 00 00 00 00 00 00 
    376     10651.298 DT     07A2 Rx 8  26 00 00 00 00 00 00 00 
    377     10651.390 DT     07A2 Rx 8  27 00 00 00 00 00 00 00 
    378     10651.479 DT     07A2 Rx 8  28 00 00 00 00 00 00 00 
    379     10651.567 DT     07A2 Rx 8  29 00 00 00 00 00 00 00 
    380     10651.655 DT     07A2 Rx 8  2A 00 00 00 00 00 00 00 
    381     10651.743 DT     07A2 Rx 8  2B 00 00 00 00 00 00 00 
    382     10651.831 DT     07A2 Rx 8  2C 00 00 00 00 00 00 00 
    383     10651.918 DT     07A2 Rx 8  2D 00 00 00 00 00 00 00 
    384     10652.005 DT     07A2 Rx 8  2E 00 00 00 00 00 00 00 
    385     10652.092 DT     07A2 Rx 8  2F 00 00 00 00 00 00 00 
    386     10652.187 DT     07A2 Rx 8  20 00 00 00 00 00 00 00 
    387     10652.275 DT     07A2 Rx 8  21 00 00 00 00 00 00 00 
    388     10652.363 DT     07A2 Rx 8  22 00 00 00 00 00 00 00 
    389     10652.451 DT     07A2 Rx 8  23 00 00 00 00 00 00 00 
    390     10652.732 DT     07A2 Rx 8  24 00 00 00 00 00 00 00 
    391     10653.004 DT     07A2 Rx 8  25 00 00 00 00 00 00 00 
    392     10653.358 DT     07A2 Rx 8  26 00 00 00 00 00 00 00 
    393     10653.528 DT     07A2 Rx 8  27 00 00 00 00 00 00 00 
    394     10653.690 DT     07A2 Rx 8  28 00 00 00 00 00 00 00 
    395     10653.845 DT     07A2 Rx 8  29 00 00 00 00 00 00 00 
    396     10669.248 DT     07AA Rx 8  02 76 05 00 00 00 00 00 
    397     10670.756 DT     07A2 Rx 8  12 02 36 06 00 00 00 00 
    398     10671.157 DT     07AA Rx 8  30 00 00 00 00 00 00 00 
    399     10672.378 DT     07A2 Rx 8  21 00 00 00 00 00 00 00 
    400     10672.481 DT     07A2 Rx 8  22 00 00 00 00 00 00 00 
    401     10672.592 DT     07A2 Rx 8  23 00 00 00 00 00 00 00 
    402     10672.716 DT     07A2 Rx 8  24 00 00 00 00 00 00 00 
    403     10672.812 DT     07A2 Rx 8  25 00 00 00 00 00 00 00 
    404     10672.917 DT     07A2 Rx 8  26 00 00 00 00 00 00 00 
    405     10673.046 DT     07A2 Rx 8  27 00 00 00 00 00 00 00 
    406     10673.173 DT     07A2 Rx 8  28 00 00 00 00 00 00 00 
    407     10673.284 DT     07A2 Rx 8  29 00 00 00 00 00 00 00 
    408     10673.397 DT     07A2 Rx 8  2A 00 00 00 00 00 00 00 
    409     10673.508 DT     07A2 Rx 8  2B 00 00 00 00 00 00 00 
    410     10673.696 DT     07A2 Rx 8  2C 00 00 00 00 00 00 00 
    411     10673.919 DT     07A2 Rx 8  2D 00 00 00 00 00 00 00 
    412     10674.027 DT     07A2 Rx 8  2E 00 00 00 00 00 00 00 
    413     10674.121 DT     07A2 Rx 8  2F 00 00 00 00 00 00 00 
    414     10674.214 DT     07A2 Rx 8  20 00 00 00 00 00 00 00 
    415     10674.370 DT     07A2 Rx 8  21 00 00 00 00 00 00 00 
    416     10674.612 DT     07A2 Rx 8  22 00 00 00 00 00 00 00 
    417     10674.720 DT     07A2 Rx 8  23 00 00 00 00 00 00 00 
    418     10674.813 DT     07A2 Rx 8  24 00 00 00 00 00 00 00 
    419     10674.906 DT     07A2 Rx 8  25 00 00 00 00 00 00 00 
    420     10675.020 DT     07A2 Rx 8  26 00 00 00 00 00 00 00 
    421     10675.116 DT     07A2 Rx 8  27 00 00 00 00 00 00 00 
    422     10675.207 DT     07A2 Rx 8  28 00 00 00 00 00 00 00 
    423     10675.371 DT     07A2 Rx 8  29 00 00 00 00 00 00 00 
    424     10675.512 DT     07A2 Rx 8  2A 00 00 00 00 00 00 00 
    425     10675.625 DT     07A2 Rx 8  2B 00 00 00 00 00 00 00 
    426     10675.738 DT     07A2 Rx 8  2C 00 00 00 00 00 00 00 
    427     10675.857 DT     07A2 Rx 8  2D 00 00 00 00 00 00 00 
    428     10675.961 DT     07A2 Rx 8  2E 00 00 00 00 00 00 00 
    429     10676.058 DT     07A2 Rx 8  2F 00 00 00 00 00 00 00 
    430     10676.149 DT     07A2 Rx 8  20 00 00 00 00 00 00 00 
    431     10676.256 DT     07A2 Rx 8  21 00 00 00 00 00 00 00 
    432     10676.349 DT     07A2 Rx 8  22 00 00 00 00 00 00 00 
    433     10676.437 DT     07A2 Rx 8  23 00 00 00 00 00 00 00 
    434     10676.525 DT     07A2 Rx 8  24 00 00 00 00 00 00 00 
    435     10676.650 DT     07A2 Rx 8  25 00 00 00 00 00 00 00 
    436     10676.750 DT     07A2 Rx 8  26 00 00 00 00 00 00 00 
    437     10676.843 DT     07A2 Rx 8  27 00 00 00 00 00 00 00 
    438     10676.934 DT     07A2 Rx 8  28 00 00 00 00 00 00 00 
    439     10677.023 DT     07A2 Rx 8  29 00 00 00 00 00 00 00 
    440     10677.113 DT     07A2 Rx 8  2A 00 00 00 00 00 00 00 
    441     10677.201 DT     07A2 Rx 8  2B 00 00 00 00 00 00 00 
    442     10677.290 DT     07A2 Rx 8  2C 00 00 00 00 00 00 00 
    443     10677.378 DT     07A2 Rx 8  2D 00 00 00 00 00 00 00 
    444     10677.466 DT     07A2 Rx 8  2E 00 00 00 00 00 00 00 
    445     10677.563 DT     07A2 Rx 8  2F 00 00 00 00 00 00 00 
    446     10677.671 DT     07A2 Rx 8  20 00 00 00 00 00 00 00 
    447     10677.764 DT     07A2 Rx 8  21 00 00 00 00 00 00 00 
    448     10677.854 DT     07A2 Rx 8  22 00 00 00 00 00 00 00 
    449     10677.943 DT     07A2 Rx 8  23 00 00 00 00 00 00 00 
    450     10678.033 DT     07A2 Rx 8  24 00 00 00 00 00 00 00 
    451     10678.122 DT     07A2 Rx 8  25 00 00 00 00 00 00 00 
    452     10678.210 DT     07A2 Rx 8  26 00 00 00 00 00 00 00 
    453     10678.298 DT     07A2 Rx 8  27 00 00 00 00 00 00 00 
    454     10678.386 DT     07A2 Rx 8  28 00 00 00 00 00 00 00 
    455     10678.474 DT     07A2 Rx 8  29 00 00 00 00 00 00 00 
    456     10678.626 DT     07A2 Rx 8  2A 00 00 00 00 00 00 00 
    457     10678.755 DT     07A2 Rx 8  2B 00 00 00 00 00 00 00 
    458     10678.851 DT     07A2 Rx 8  2C 00 00 00 00 00 00 00 
    459     10678.979 DT     07A2 Rx 8  2D 00 00 00 00 00 00 00 
    460     10679.140 DT     07A2 Rx 8  2E 00 00 00 00 00 00 00 
    461     10679.463 DT     07A2 Rx 8  2F 00 00 00 00 00 00 00 
    462     10679.706 DT     07A2 Rx 8  20 00 00 00 00 00 00 00 
    463     10679.812 DT     07A2 Rx 8  21 00 00 00 00 00 00 00 
    464     10679.907 DT     07A2 Rx 8  22 00 00 00 00 00 00 00 
    465     10680.012 DT     07A2 Rx 8  23 00 00 00 00 00 00 00 
    466     10680.105 DT     07A2 Rx 8  24 00 00 00 00 00 00 00 
    467     10680.195 DT     07A2 Rx 8  25 00 00 00 00 00 00 00 
    468     10680.285 DT     07A2 Rx 8  26 00 00 00 00 00 00 00 
    469     10680.429 DT     07A2 Rx 8  27 00 00 00 00 00 00 00 
    470     10680.526 DT     07A2 Rx 8  28 00 00 00 00 00 00 00 
    471     10680.622 DT     07A2 Rx 8  29 00 00 00 00 00 00 00 
    472     10699.256 DT     07AA Rx 8  02 76 06 00 00 00 00 00 
    473     10701.483 DT     07A2 Rx 8  12 02 36 07 00 00 00 00 
    474     10702.179 DT     07AA Rx 8  30 00 00 00 00 00 00 00 
    475     10703.538 DT     07A2 Rx 8  21 00 00 00 00 00 00 00 
    476     10703.779 DT     07A2 Rx 8  22 00 00 00 00 00 00 00 
    477     10703.917 DT     07A2 Rx 8  23 00 00 00 00 00 00 00 
    478     10704.037 DT     07A2 Rx 8  24 00 00 00 00 00 00 00 
    479     10704.286 DT     07A2 Rx 8  25 00 00 00 00 00 00 00 
    480     10704.500 DT     07A2 Rx 8  26 00 00 00 00 00 00 00 
    481     10704.729 DT     07A2 Rx 8  27 00 00 00 00 00 00 00 
    482     10704.915 DT     07A2 Rx 8  28 00 00 00 00 00 00 00 
    483     10705.153 DT     07A2 Rx 8  29 00 00 00 00 04 00 0F 
    484     10705.358 DT     07A2 Rx 8  2A 21 BC 6C 0F 21 BC 6C 
    485     10705.534 DT     07A2 Rx 8  2B 0F 21 BC 6C 0F 21 BC 
    486     10705.672 DT     07A2 Rx 8  2C 6C 0F 21 BC 6C 0F 21 
    487     10706.078 DT     07A2 Rx 8  2D BC 6C 0F 21 BC 6C 0F 
    488     10706.402 DT     07A2 Rx 8  2E 21 BC 6C 0F 21 BC 6C 
    489     10706.718 DT     07A2 Rx 8  2F 0F 21 BC 6C 0F 21 BC 
    490     10706.983 DT     07A2 Rx 8  20 6C 0F 21 BC 6C 0F 21 
    491     10707.203 DT     07A2 Rx 8  21 BC 6C 0F 21 BC 6C 0F 
    492     10707.419 DT     07A2 Rx 8  22 21 BC 6C 0F 21 BC 6C 
    493     10707.607 DT     07A2 Rx 8  23 0F 21 BC 6C 0F 21 BC 
    494     10707.828 DT     07A2 Rx 8  24 6C 0F 21 BC 6C 0F 21 
    495     10708.024 DT     07A2 Rx 8  25 BC 6C 0F 21 BC 6C 0F 
    496     10708.209 DT     07A2 Rx 8  26 21 BC 6C 0F 21 BC 6C 
    497     10708.392 DT     07A2 Rx 8  27 0F 21 BC 6C 0F 21 BC 
    498     10708.580 DT     07A2 Rx 8  28 6C 0F 21 BC 6C 0F 21 
    499     10708.820 DT     07A2 Rx 8  29 BC 6C 0F 21 BC 6C 0F 
    500     10708.949 DT     07A2 Rx 8  2A 21 BC 6C 0F 21 BC 6C 
    501     10709.066 DT     07A2 Rx 8  2B 0F 21 BC 6C 0F 21 00 
    502     10709.231 DT     07A2 Rx 8  2C 00 00 00 00 00 00 00 
    503     10709.419 DT     07A2 Rx 8  2D 00 00 00 00 00 00 00 
    504     10709.604 DT     07A2 Rx 8  2E 00 00 00 00 00 00 00 
    505     10709.837 DT     07A2 Rx 8  2F 00 00 00 00 00 00 00 
    506     10710.044 DT     07A2 Rx 8  20 00 00 00 00 00 00 00 
    507     10710.231 DT     07A2 Rx 8  21 00 00 00 00 00 00 00 
    508     10710.420 DT     07A2 Rx 8  22 00 00 00 00 00 00 00 
    509     10710.603 DT     07A2 Rx 8  23 00 00 00 00 00 00 00 
    510     10710.798 DT     07A2 Rx 8  24 00 00 00 00 00 00 00 
    511     10710.992 DT     07A2 Rx 8  25 00 00 00 00 00 00 00 
    512     10711.176 DT     07A2 Rx 8  26 00 00 00 00 00 00 00 
    513     10711.363 DT     07A2 Rx 8  27 00 00 00 00 00 00 00 
    514     10711.540 DT     07A2 Rx 8  28 00 00 00 00 00 00 00 
    515     10711.804 DT     07A2 Rx 8  29 00 00 00 00 00 00 00 
    516     10712.028 DT     07A2 Rx 8  2A 00 00 00 00 00 00 00 
    517     10712.227 DT     07A2 Rx 8  2B 00 00 00 00 00 00 00 
    518     10712.405 DT     07A2 Rx 8  2C 00 00 00 00 00 00 00 
    519     10712.582 DT     07A2 Rx 8  2D 00 00 00 00 00 00 00 
    520     10712.810 DT     07A2 Rx 8  2E 00 00 00 00 00 00 00 
    521     10713.002 DT     07A2 Rx 8  2F 00 00 00 00 00 00 00 
    522     10713.178 DT     07A2 Rx 8  20 00 00 00 00 00 00 00 
    523     10713.367 DT     07A2 Rx 8  21 00 00 00 00 00 00 00 
    524     10713.503 DT     07A2 Rx 8  22 00 00 00 00 00 00 00 
    525     10713.688 DT     07A2 Rx 8  23 00 00 00 00 00 00 00 
    526     10713.952 DT     07A2 Rx 8  24 00 00 00 00 00 00 00 
    527     10714.171 DT     07A2 Rx 8  25 00 00 00 00 00 00 00 
    528     10714.326 DT     07A2 Rx 8  26 00 00 00 00 00 00 00 
    529     10714.428 DT     07A2 Rx 8  27 00 00 00 00 00 00 00 
    530     10714.522 DT     07A2 Rx 8  28 00 00 00 00 00 00 00 
    531     10714.613 DT     07A2 Rx 8  29 00 00 00 00 00 00 00 
    532     10714.705 DT     07A2 Rx 8  2A 00 00 00 00 00 00 00 
    533     10714.795 DT     07A2 Rx 8  2B 00 00 00 00 00 00 00 
    534     10714.884 DT     07A2 Rx 8  2C 00 00 00 00 00 00 00 
    535     10714.972 DT     07A2 Rx 8  2D 00 00 00 00 00 00 00 
    536     10715.061 DT     07A2 Rx 8  2E 00 00 00 00 00 00 00 
    537     10715.148 DT     07A2 Rx 8  2F 00 00 00 00 00 00 00 
    538     10715.236 DT     07A2 Rx 8  20 00 00 00 00 00 00 00 
    539     10715.324 DT     07A2 Rx 8  21 00 00 00 00 00 00 00 
    540     10715.412 DT     07A2 Rx 8  22 00 00 00 00 00 00 00 
    541     10715.500 DT     07A2 Rx 8  23 00 00 00 00 00 00 00 
    542     10715.587 DT     07A2 Rx 8  24 00 00 00 00 00 00 00 
    543     10715.700 DT     07A2 Rx 8  25 00 00 00 00 00 00 00 
    544     10715.821 DT     07A2 Rx 8  26 00 00 00 00 00 00 00 
    545     10715.914 DT     07A2 Rx 8  27 00 00 00 00 00 00 00 
    546     10716.004 DT     07A2 Rx 8  28 00 00 00 00 00 00 00 
    547     10716.095 DT     07A2 Rx 8  29 00 00 00 00 00 00 00 
    548     10729.256 DT     07AA Rx 8  02 76 07 00 00 00 00 00 
    549     10730.834 DT     07A2 Rx 8  12 02 36 08 00 00 00 00 
    550     10731.168 DT     07AA Rx 8  30 00 00 00 00 00 00 00 
    551     10732.413 DT     07A2 Rx 8  21 00 00 00 00 00 00 00 
    552     10732.849 DT     07A2 Rx 8  22 00 00 00 00 00 00 00 
    553     10733.137 DT     07A2 Rx 8  23 00 00 00 00 00 00 00 
    554     10733.557 DT     07A2 Rx 8  24 00 00 00 00 00 00 00 
    555     10733.917 DT     07A2 Rx 8  25 00 00 00 00 00 00 00 
    556     10734.137 DT     07A2 Rx 8  26 00 00 00 00 00 00 00 
    557     10734.283 DT     07A2 Rx 8  27 00 00 00 00 00 00 00 
    558     10734.389 DT     07A2 Rx 8  28 00 00 00 00 00 00 00 
    559     10734.484 DT     07A2 Rx 8  29 00 00 00 00 00 00 00 
    560     10734.577 DT     07A2 Rx 8  2A 00 00 00 00 00 00 00 
    561     10734.670 DT     07A2 Rx 8  2B 00 00 00 00 00 00 00 
    562     10734.763 DT     07A2 Rx 8  2C 00 00 00 00 00 00 00 
    563     10734.853 DT     07A2 Rx 8  2D 00 00 00 00 00 00 00 
    564     10734.946 DT     07A2 Rx 8  2E 00 00 00 00 00 00 00 
    565     10735.065 DT     07A2 Rx 8  2F 00 00 00 00 00 00 00 
    566     10735.190 DT     07A2 Rx 8  20 00 00 00 00 00 00 00 
    567     10735.301 DT     07A2 Rx 8  21 00 00 00 00 00 00 00 
    568     10735.483 DT     07A2 Rx 8  22 00 00 00 00 00 00 00 
    569     10735.759 DT     07A2 Rx 8  23 00 00 00 00 00 00 00 
    570     10735.873 DT     07A2 Rx 8  24 00 00 00 00 00 00 00 
    571     10735.994 DT     07A2 Rx 8  25 00 00 00 00 00 00 00 
    572     10736.090 DT     07A2 Rx 8  26 00 00 00 00 00 00 00 
    573     10736.181 DT     07A2 Rx 8  27 00 00 00 00 00 00 00 
    574     10736.270 DT     07A2 Rx 8  28 00 00 00 00 00 00 00 
    575     10736.362 DT     07A2 Rx 8  29 00 00 00 00 00 00 00 
    576     10736.452 DT     07A2 Rx 8  2A 00 00 00 00 00 00 00 
    577     10736.540 DT     07A2 Rx 8  2B 00 00 00 00 00 00 00 
    578     10736.629 DT     07A2 Rx 8  2C 00 00 00 15 CC 19 D4 
    579     10736.737 DT     07A2 Rx 8  2D 3F 54 2A 7C 2A 98 33 
    580     10736.849 DT     07A2 Rx 8  2E A8 7E A8 54 F8 6B 64 
    581     10736.940 DT     07A2 Rx 8  2F 4D 2C 41 FC 7E 84 54 
    582     10737.028 DT     07A2 Rx 8  20 30 67 50 E9 9C B0 24 
    583     10737.117 DT     07A2 Rx 8  21 FC 50 A9 F0 D6 C8 9A 
    584     10737.206 DT     07A2 Rx 8  22 58 C3 04 83 8C 97 34 
    585     10737.294 DT     07A2 Rx 8  23 E4 DC 82 F8 FD 08 A8 
    586     10737.385 DT     07A2 Rx 8  24 60 CE A0 BD AC D7 74 
    587     10737.515 DT     07A2 Rx 8  25 D2 39 61 49 C7 F5 78 
    588     10737.704 DT     07A2 Rx 8  26 9D ED 6D 4B 35 F8 A1 
    589     10737.829 DT     07A2 Rx 8  27 52 E1 AC 91 35 B1 B9 
    590     10737.925 DT     07A2 Rx 8  28 5D 2C 65 93 C5 1F CD 
    591     10738.017 DT     07A2 Rx 8  29 86 09 06 19 3B A5 D1 
    592     10738.108 DT     07A2 Rx 8  2A 6D 2E 69 C8 B9 04 F1 
    593     10738.313 DT     07A2 Rx 8  2B FB 11 11 3D E2 C5 45 
    594     10738.547 DT     07A2 Rx 8  2C 0D 85 95 50 C1 9C 41 
    595     10738.655 DT     07A2 Rx 8  2D 7A 59 AF E9 6F 95 B6 
    596     10738.750 DT     07A2 Rx 8  2E 3D A4 73 C2 92 B1 BF 
    597     10738.842 DT     07A2 Rx 8  2F DB 46 9B 27 E8 EE 8E 
    598     10738.931 DT     07A2 Rx 8  20 EB F1 3A DA DB 96 6A 
    599     10739.022 DT     07A2 Rx 8  21 CF 17 8F BE E5 8F BC 
    600     10739.113 DT     07A2 Rx 8  22 16 F0 43 A5 C2 4D EF 
    601     10739.202 DT     07A2 Rx 8  23 72 B6 58 23 6B 62 72 
    602     10739.325 DT     07A2 Rx 8  24 BB 58 CA 67 77 41 1E 
    603     10739.431 DT     07A2 Rx 8  25 33 47 26 4E 26 8B 3F 
    604     10739.525 DT     07A2 Rx 8  26 9A 0C 13 0C 32 19 DF 
    605     10739.617 DT     07A2 Rx 8  27 15 E6 76 4A A3 DB 63 
    606     10739.710 DT     07A2 Rx 8  28 86 BA 0F 49 1E 89 A7 
    607     10739.800 DT     07A2 Rx 8  29 5C D2 90 73 08 E2 F7 
    608     10739.889 DT     07A2 Rx 8  2A 23 1D 2E EE F7 37 B6 
    609     10739.978 DT     07A2 Rx 8  2B DD 5F 22 7A C4 8B 9F 
    610     10740.069 DT     07A2 Rx 8  2C D6 13 FF 8A 1A 0A 2B 
    611     10740.192 DT     07A2 Rx 8  2D A0 82 39 83 B5 4E 20 
    612     10740.290 DT     07A2 Rx 8  2E 57 E1 7E 47 07 F4 B2 
    613     10740.382 DT     07A2 Rx 8  2F 5E D3 DE 2A 6D 7B CB 
    614     10740.498 DT     07A2 Rx 8  20 E6 74 AF 5D 2B 9D F1 
    615     10740.591 DT     07A2 Rx 8  21 48 E7 84 25 62 7F B7 
    616     10740.680 DT     07A2 Rx 8  22 8D 77 B3 AE 59 23 83 
    617     10740.770 DT     07A2 Rx 8  23 C9 09 36 4F D0 DD 1C 
    618     10740.860 DT     07A2 Rx 8  24 D7 E3 75 09 1B FA A1 
    619     10740.948 DT     07A2 Rx 8  25 B4 B7 2D D5 A1 7B 34 
    620     10741.038 DT     07A2 Rx 8  26 01 8B E3 07 A9 9E 2F 
    621     10741.127 DT     07A2 Rx 8  27 1E 7D CA 1F 79 2D DF 
    622     10741.215 DT     07A2 Rx 8  28 D3 60 F9 F5 4B 53 51 
    623     10741.305 DT     07A2 Rx 8  29 E0 87 4A 85 00 00 00 
    624     10759.364 DT     07AA Rx 8  02 76 08 00 00 00 00 00 
    625     10761.448 DT     07A2 Rx 8  12 02 36 09 8F 12 FC B8 
    626     10762.260 DT     07AA Rx 8  30 00 00 00 00 00 00 00 
    627     10763.477 DT     07A2 Rx 8  21 9A DE E5 6C B0 46 D6 
    628     10763.748 DT     07A2 Rx 8  22 C4 A5 8A CF 10 F1 BA 
    629     10763.990 DT     07A2 Rx 8  23 A8 40 E4 76 B1 94 CE 
    630     10764.238 DT     07A2 Rx 8  24 EE 82 3C DB 22 9B E8 
    631     10764.490 DT     07A2 Rx 8  25 66 8E 4C 9C 73 42 55 
    632     10764.665 DT     07A2 Rx 8  26 48 59 DA 66 E0 4C 16 
    633     10764.822 DT     07A2 Rx 8  27 7F 34 18 26 18 64 0D 
    634     10765.061 DT     07A2 Rx 8  28 EA 01 B0 27 72 32 18 
    635     10765.264 DT     07A2 Rx 8  29 32 BE 2B CC F9 58 5F 
    636     10765.390 DT     07A2 Rx 8  2A 63 EC 94 46 B7 C6 0C 
    637     10765.572 DT     07A2 Rx 8  2B 75 1F D3 C0 6C CB 87 
    638     10765.787 DT     07A2 Rx 8  2C F0 0B 9B 92 3C 12 4F 
    639     10766.001 DT     07A2 Rx 8  2D B8 A4 21 E7 AD 68 38 
    640     10766.284 DT     07A2 Rx 8  2E 33 10 C4 EF 47 05 08 
    641     10766.552 DT     07A2 Rx 8  2F F6 93 2F 90 C5 3B 3A 
    642     10766.788 DT     07A2 Rx 8  20 5C DC EF 6E 6C BB BF 
    643     10767.031 DT     07A2 Rx 8  21 7B A0 A2 6B 51 38 91 
    644     10767.262 DT     07A2 Rx 8  22 C3 44 F4 88 17 2B 61 
    645     10767.422 DT     07A2 Rx 8  23 3E 2A 3E AD 27 FE 14 
    646     10767.609 DT     07A2 Rx 8  24 35 14 56 01 F9 0D 82 
    647     10767.793 DT     07A2 Rx 8  25 55 C9 6A D2 40 05 73 
    648     10767.927 DT     07A2 Rx 8  26 06 6A 9D 40 AE 7F 51 
    649     10768.152 DT     07A2 Rx 8  27 59 7A C2 FD 8E 0E D7 
    650     10768.341 DT     07A2 Rx 8  28 31 97 DA FD A9 A4 72 
    651     10768.521 DT     07A2 Rx 8  29 E8 65 BD A6 BC 55 DA 
    652     10768.698 DT     07A2 Rx 8  2A F6 A9 99 C3 22 83 01 
    653     10768.888 DT     07A2 Rx 8  2B F0 8A 96 CD E9 5E AF 
    654     10769.119 DT     07A2 Rx 8  2C 9A 23 37 BA 56 3A E3 
    655     10769.362 DT     07A2 Rx 8  2D 90 CE 09 4B 85 02 10 
    656     10769.562 DT     07A2 Rx 8  2E 9F D1 32 77 CF C4 FE 
    657     10769.742 DT     07A2 Rx 8  2F 6E 1B EE 66 5D B3 FB 
    658     10769.950 DT     07A2 Rx 8  20 AA 44 67 46 06 93 13 
    659     10770.156 DT     07A2 Rx 8  21 53 CA 8A C7 79 52 B9 
    660     10770.342 DT     07A2 Rx 8  22 6F 6C 9E A0 BB 38 AE 
    661     10770.519 DT     07A2 Rx 8  23 C7 EB 2D 62 DE 3F 07 
    662     10770.702 DT     07A2 Rx 8  24 FA ED 97 12 36 F4 43 
    663     10770.886 DT     07A2 Rx 8  25 7D A3 42 7E 68 6F 5B 
    664     10771.091 DT     07A2 Rx 8  26 AA 42 F7 68 02 57 3B 
    665     10771.278 DT     07A2 Rx 8  27 71 D6 03 0B 16 86 16 
    666     10771.465 DT     07A2 Rx 8  28 C7 0F 52 3C 5F 3C FA 
    667     10771.598 DT     07A2 Rx 8  29 29 93 25 2E 94 3F F2 
    668     10771.719 DT     07A2 Rx 8  2A 5A 81 F3 EB 8E AB 6B 
    669     10771.878 DT     07A2 Rx 8  2B D8 26 BE A7 C1 F2 EA 
    670     10772.081 DT     07A2 Rx 8  2C 97 A6 A2 FF 5B BF 76 
    671     10772.266 DT     07A2 Rx 8  2D D5 C3 8C DE C0 0F 95 
    672     10772.450 DT     07A2 Rx 8  2E 0A 0B E9 E1 A5 1E 25 
    673     10772.626 DT     07A2 Rx 8  2F F8 71 34 BD CB D9 21 
    674     10772.892 DT     07A2 Rx 8  20 71 D2 0D 75 41 B5 5D 
    675     10773.192 DT     07A2 Rx 8  21 60 8D AC 89 4A 15 9F 
    676     10773.536 DT     07A2 Rx 8  22 21 5F D9 86 F5 E2 75 
    677     10773.895 DT     07A2 Rx 8  23 51 81 F7 B9 48 55 DD 
    678     10774.102 DT     07A2 Rx 8  24 21 7B FD C8 ED 62 29 
    679     10774.236 DT     07A2 Rx 8  25 9C DD 05 79 89 11 1C 
    680     10774.489 DT     07A2 Rx 8  26 AD A3 89 2F 05 B6 45 
    681     10774.738 DT     07A2 Rx 8  27 36 D1 D9 D0 80 EC CC 
    682     10774.852 DT     07A2 Rx 8  28 1C 99 38 E6 84 AA 90 
    683     10774.960 DT     07A2 Rx 8  29 F3 48 B3 44 A7 78 D4 
    684     10775.055 DT     07A2 Rx 8  2A 14 B2 B4 CD C0 98 2C 
    685     10775.146 DT     07A2 Rx 8  2B FE 68 8D E0 E7 BC 30 
    686     10775.236 DT     07A2 Rx 8  2C 4C 30 C8 25 80 29 1C 
    687     10775.327 DT     07A2 Rx 8  2D 0F 18 1A B4 1A D4 03 
    688     10775.416 DT     07A2 Rx 8  2E 60 4E E4 64 30 5B 28 
    689     10775.505 DT     07A2 Rx 8  2F 7D E4 71 B0 4E 4C 64 
    690     10775.621 DT     07A2 Rx 8  20 7C 57 98 F2 B1 BE C6 
    691     10775.735 DT     07A2 Rx 8  21 E7 7D A7 12 CD E5 94 
    692     10775.826 DT     07A2 Rx 8  22 BA D8 29 8D 6E 8C 19 
    693     10775.914 DT     07A2 Rx 8  23 EA 3E 99 D5 F3 EA B3 
    694     10776.069 DT     07A2 Rx 8  24 4D C0 42 A6 81 D9 96 
    695     10776.173 DT     07A2 Rx 8  25 1B 2D 0E E2 0E E1 17 
    696     10776.267 DT     07A2 Rx 8  26 36 24 79 24 9E 31 B5 
    697     10776.358 DT     07A2 Rx 8  27 3D 4A 65 85 5A 1A 70 
    698     10776.451 DT     07A2 Rx 8  28 49 43 CE 5A D1 70 66 
    699     10776.544 DT     07A2 Rx 8  29 4F 1D 69 B2 00 00 00 
    700     10789.366 DT     07AA Rx 8  02 76 09 00 00 00 00 00 
    701     10790.847 DT     07A2 Rx 8  12 02 36 0A 20 88 DF 8F 
    702     10791.271 DT     07AA Rx 8  30 00 00 00 00 00 00 00 
    703     10792.384 DT     07A2 Rx 8  21 35 44 C6 5B 1F DC F5 
    704     10792.486 DT     07A2 Rx 8  22 F3 0A 10 EC 27 5E 20 
    705     10792.582 DT     07A2 Rx 8  23 8B 77 4B EC 92 A3 61 
    706     10792.698 DT     07A2 Rx 8  24 74 A1 0B 74 B8 B8 DF 
    707     10792.789 DT     07A2 Rx 8  25 C9 14 6F AB DC D8 76 
    708     10792.879 DT     07A2 Rx 8  26 7F F6 40 45 D7 E3 8C 
    709     10792.969 DT     07A2 Rx 8  27 5C 03 B7 BC 3B 53 A2 
    710     10793.058 DT     07A2 Rx 8  28 70 22 87 88 E8 11 2F 
    711     10793.146 DT     07A2 Rx 8  29 9D 24 08 FB 56 C2 7C 
    712     10793.236 DT     07A2 Rx 8  2A 54 43 0E 65 80 69 96 
    713     10793.324 DT     07A2 Rx 8  2B 56 28 7C 5A 4F FC 28 
    714     10793.413 DT     07A2 Rx 8  2C 6A 28 AC 3D A6 31 78 
    715     10793.500 DT     07A2 Rx 8  2D 17 3E 02 D0 02 F2 1B 
    716     10793.619 DT     07A2 Rx 8  2E 04 BF 5E CC 70 AA 92 
    717     10793.710 DT     07A2 Rx 8  2F D5 A4 80 0A E6 0C 95 
    718     10793.799 DT     07A2 Rx 8  20 C6 FF D8 C1 F6 98 88 
    719     10793.888 DT     07A2 Rx 8  21 D4 3A 81 5C FE A2 B2 
    720     10793.976 DT     07A2 Rx 8  22 F4 EB 6E AB 20 84 FB 
    721     10794.064 DT     07A2 Rx 8  23 1D 1D 91 37 04 C9 BB 
    722     10794.153 DT     07A2 Rx 8  24 AF 37 61 AE 63 2E B5 
    723     10794.242 DT     07A2 Rx 8  25 FA 53 49 E5 EF 9F 50 
    724     10794.330 DT     07A2 Rx 8  26 31 C5 07 63 99 D0 CB 
    725     10794.434 DT     07A2 Rx 8  27 7A 4D 6D 67 AD 39 78 
    726     10794.550 DT     07A2 Rx 8  28 AB B4 ED 52 33 87 45 
    727     10794.679 DT     07A2 Rx 8  29 47 FF 9E 91 13 CF F9 
    728     10794.825 DT     07A2 Rx 8  2A C1 06 03 E0 15 2C 9B 
    729     10794.947 DT     07A2 Rx 8  2B D3 BD 39 57 CA 69 E4 
    730     10795.039 DT     07A2 Rx 8  2C C2 6A 25 40 19 15 7D 
    731     10795.159 DT     07A2 Rx 8  2D 28 46 2C 74 4C 71 42 
    732     10795.255 DT     07A2 Rx 8  2E 08 20 00 A1 40 2C 74 
    733     10795.347 DT     07A2 Rx 8  2F A1 40 8A 08 20 00 00 
    734     10795.438 DT     07A2 Rx 8  20 1D A0 13 C4 C6 E0 78 
    735     10795.529 DT     07A2 Rx 8  21 DD 07 CF FF D9 07 CF 
    736     10795.618 DT     07A2 Rx 8  22 FF D5 07 CF FF 2F 27 
    737     10795.706 DT     07A2 Rx 8  23 FF 00 AB 20 D0 02 AB 
    738     10795.796 DT     07A2 Rx 8  24 22 88 01 2F 26 FF 00 
    739     10795.885 DT     07A2 Rx 8  25 C1 07 CF FF ED 07 EF 
    740     10796.007 DT     07A2 Rx 8  26 FF 4C 70 E0 78 E8 C2 
    741     10796.160 DT     07A2 Rx 8  27 48 45 28 46 CE 09 20 
    742     10796.375 DT     07A2 Rx 8  28 00 08 47 13 E8 B5 70 
    743     10796.478 DT     07A2 Rx 8  29 C0 D8 CA 20 21 00 AA 
    744     10796.572 DT     07A2 Rx 8  2A 20 01 22 AB 20 01 02 
    745     10796.662 DT     07A2 Rx 8  2B C3 42 0F 21 04 0F E1 
    746     10796.753 DT     07A2 Rx 8  2C 40 FE 09 20 00 C1 41 
    747     10796.843 DT     07A2 Rx 8  2D AB 20 01 22 C8 C6 0C 
    748     10796.933 DT     07A2 Rx 8  2E 71 C8 C6 E0 78 F1 C0 
    749     10797.022 DT     07A2 Rx 8  2F D6 09 00 00 AB 20 81 
    750     10797.156 DT     07A2 Rx 8  20 02 E0 78 E0 78 E0 78 
    751     10797.275 DT     07A2 Rx 8  21 0C 70 D1 C0 E0 7F AA 
    752     10797.373 DT     07A2 Rx 8  22 21 01 02 E0 78 E4 C2 
    753     10797.464 DT     07A2 Rx 8  23 28 45 1E 0A 20 00 08 
    754     10797.554 DT     07A2 Rx 8  24 46 0A E8 C3 42 0F 21 
    755     10797.644 DT     07A2 Rx 8  25 40 0F C1 40 5E 0A 20 
    756     10797.734 DT     07A2 Rx 8  26 00 A1 41 C4 C6 0C 71 
    757     10797.825 DT     07A2 Rx 8  27 C4 C6 F1 C0 2E 0A 00 
    758     10797.915 DT     07A2 Rx 8  28 00 6B 20 40 06 E0 78 
    759     10798.004 DT     07A2 Rx 8  29 E0 78 E0 78 0C 70 D1 
    760     10798.143 DT     07A2 Rx 8  2A C0 E0 7F 6A 21 40 04 
    761     10798.287 DT     07A2 Rx 8  2B E0 78 E0 78 E0 78 0A 
    762     10798.420 DT     07A2 Rx 8  2C 24 80 F0 05 20 44 00 
    763     10798.540 DT     07A2 Rx 8  2D E0 20 C1 07 44 24 FE 
    764     10798.738 DT     07A2 Rx 8  2E 80 41 2A C4 00 84 00 
    765     10798.835 DT     07A2 Rx 8  2F 02 00 2F 24 02 F1 42 
    766     10798.939 DT     07A2 Rx 8  20 21 01 01 42 20 03 01 
    767     10799.042 DT     07A2 Rx 8  21 E8 20 A2 04 04 11 04 
    768     10799.132 DT     07A2 Rx 8  22 02 04 11 05 02 04 11 
    769     10799.442 DT     07A2 Rx 8  23 06 02 04 11 07 02 04 
    770     10799.728 DT     07A2 Rx 8  24 1B 08 01 04 1B 48 01 
    771     10799.950 DT     07A2 Rx 8  25 04 1B 88 01 04 1B C8 
    772     10800.085 DT     07A2 Rx 8  26 01 2C 00 25 00 44 22 
    773     10800.179 DT     07A2 Rx 8  27 3E 81 3C 00 22 00 44 
    774     10800.303 DT     07A2 Rx 8  28 22 FC 80 40 21 C1 00 
    775     10800.410 DT     07A2 Rx 8  29 E0 20 C1 07 00 00 00 
    776     10819.359 DT     07AA Rx 8  02 76 0A 00 00 00 00 00 
    777     10821.394 DT     07A2 Rx 8  12 02 36 0B 40 23 C3 00 
    778     10822.247 DT     07AA Rx 8  30 00 00 00 00 00 00 00 
    779     10823.405 DT     07A2 Rx 8  21 A8 20 80 01 01 11 84 
    780     10823.563 DT     07A2 Rx 8  22 02 01 1B 0A 01 20 20 
    781     10823.788 DT     07A2 Rx 8  23 C0 07 04 11 04 02 04 
    782     10823.990 DT     07A2 Rx 8  24 11 05 02 04 1B 08 01 
    783     10824.200 DT     07A2 Rx 8  25 D4 07 E1 FF 04 1B 48 
    784     10824.397 DT     07A2 Rx 8  26 01 44 22 FC 80 04 11 
    785     10824.577 DT     07A2 Rx 8  27 04 02 C9 07 EF FF 04 
    786     10824.761 DT     07A2 Rx 8  28 1B 08 01 42 21 41 00 
    787     10824.945 DT     07A2 Rx 8  29 42 20 43 00 A8 20 80 
    788     10825.175 DT     07A2 Rx 8  2A 01 01 11 84 02 01 1B 
    789     10825.359 DT     07A2 Rx 8  2B 0A 01 20 20 C0 07 42 
    790     10825.543 DT     07A2 Rx 8  2C 22 3C 80 E0 7C 2F 23 
    791     10825.725 DT     07A2 Rx 8  2D 47 10 00 43 A8 20 00 
    792     10825.901 DT     07A2 Rx 8  2E 02 53 23 7E 80 06 F2 
    793     10826.131 DT     07A2 Rx 8  2F 01 1B 52 00 44 77 49 
    794     10826.476 DT     07A2 Rx 8  20 00 00 00 35 0A 34 01 
    795     10826.732 DT     07A2 Rx 8  21 40 2B 0C 12 05 24 CC 
    796     10826.939 DT     07A2 Rx 8  22 12 41 2A BC 00 40 2C 
    797     10827.184 DT     07A2 Rx 8  23 08 14 05 20 08 13 0A 
    798     10827.389 DT     07A2 Rx 8  24 24 C0 10 A8 20 00 01 
    799     10827.578 DT     07A2 Rx 8  25 04 1C 10 12 53 22 4C 
    800     10827.762 DT     07A2 Rx 8  26 80 E0 7C 6C 22 42 00 
    801     10827.940 DT     07A2 Rx 8  27 0D 00 20 00 5B 63 0A 
    802     10828.142 DT     07A2 Rx 8  28 24 80 10 0A 24 00 73 
    803     10828.335 DT     07A2 Rx 8  29 A8 20 00 01 01 1B 52 
    804     10828.512 DT     07A2 Rx 8  2A 00 E0 7E E0 78 4A 21 
    805     10828.699 DT     07A2 Rx 8  2B 40 00 AA 20 01 02 D3 
    806     10828.875 DT     07A2 Rx 8  2C 71 FF 0F FF FF 84 20 
    807     10829.141 DT     07A2 Rx 8  2D 04 00 E0 20 CD 07 24 
    808     10829.329 DT     07A2 Rx 8  2E 71 F6 E8 E0 7E AA 20 
    809     10829.516 DT     07A2 Rx 8  2F 81 0C E0 7F 0F 78 AA 
    810     10829.700 DT     07A2 Rx 8  20 20 81 0C 2F 26 07 F0 
    811     10829.886 DT     07A2 Rx 8  21 08 F2 0B 20 80 8F 30 
    812     10830.100 DT     07A2 Rx 8  22 00 00 00 0C 71 04 F2 
    813     10830.286 DT     07A2 Rx 8  23 E0 7E E0 7F 0C 70 6A 
    814     10830.470 DT     07A2 Rx 8  24 20 00 01 84 20 03 00 
    815     10830.653 DT     07A2 Rx 8  25 E0 7F 78 20 00 00 E0 
    816     10830.837 DT     07A2 Rx 8  26 78 AA 21 81 0C 10 D8 
    817     10831.045 DT     07A2 Rx 8  27 AD 21 01 0C E0 7F 38 
    818     10831.240 DT     07A2 Rx 8  28 78 E0 78 AA 22 81 0C 
    819     10831.418 DT     07A2 Rx 8  29 8A 21 3F 0C AD 22 01 
    820     10831.601 DT     07A2 Rx 8  2A 0C 58 79 E0 7F 24 78 
    821     10831.784 DT     07A2 Rx 8  2B E0 78 E8 C2 AA 20 81 
    822     10831.972 DT     07A2 Rx 8  2C 1C 1C 61 AA 23 81 0C 
    823     10832.170 DT     07A2 Rx 8  2D AA 21 81 0C 8A 25 3F 
    824     10832.364 DT     07A2 Rx 8  2E 1C AD 21 01 0C AD 23 
    825     10832.546 DT     07A2 Rx 8  2F 01 0C 85 77 00 2D 4E 
    826     10832.722 DT     07A2 Rx 8  20 10 78 7D 84 7E 04 7D 
    827     10832.905 DT     07A2 Rx 8  21 1F 0E 64 13 50 40 AD 
    828     10833.086 DT     07A2 Rx 8  22 20 01 1C 10 D8 00 28 
    829     10833.259 DT     07A2 Rx 8  23 0F 02 23 20 00 04 A1 
    830     10833.454 DT     07A2 Rx 8  24 40 86 E8 FD 65 F9 0E 
    831     10833.631 DT     07A2 Rx 8  25 45 93 0C 70 C8 C6 E0 
    832     10833.805 DT     07A2 Rx 8  26 78 AA 20 C1 0D E0 7F 
    833     10833.930 DT     07A2 Rx 8  27 0F 78 AA 20 C1 0D 2F 
    834     10834.184 DT     07A2 Rx 8  28 26 07 F0 08 F2 0B 20 
    835     10834.361 DT     07A2 Rx 8  29 80 8F 30 00 00 00 0C 
    836     10834.487 DT     07A2 Rx 8  2A 71 04 F2 E0 7E E0 7F 
    837     10834.606 DT     07A2 Rx 8  2B 0C 70 6A 20 00 01 84 
    838     10834.723 DT     07A2 Rx 8  2C 20 03 00 E0 7F 78 20 
    839     10834.839 DT     07A2 Rx 8  2D 00 00 E0 78 AA 22 C1 
    840     10834.957 DT     07A2 Rx 8  2E 0D 8A 21 3F 0E AD 22 
    841     10835.074 DT     07A2 Rx 8  2F 01 0C 58 79 E0 7F 24 
    842     10835.189 DT     07A2 Rx 8  20 78 E0 78 AA 21 C1 0D 
    843     10835.314 DT     07A2 Rx 8  21 08 D8 AD 21 01 0C E0 
    844     10835.433 DT     07A2 Rx 8  22 7F 38 78 E0 78 E8 C2 
    845     10835.549 DT     07A2 Rx 8  23 AA 20 C1 1D 1C 61 AA 
    846     10835.664 DT     07A2 Rx 8  24 23 C1 0D AA 21 C1 0D 
    847     10835.777 DT     07A2 Rx 8  25 8A 25 3F 1E AD 21 01 
    848     10835.891 DT     07A2 Rx 8  26 0C AD 23 01 0C 85 77 
    849     10836.079 DT     07A2 Rx 8  27 00 2D 4E 10 78 7D 84 
    850     10836.318 DT     07A2 Rx 8  28 7E 04 7D 1F 0E 64 13 
    851     10836.507 DT     07A2 Rx 8  29 50 40 AD 20 00 00 00 
    852     10849.349 DT     07AA Rx 8  02 76 0B 00 00 00 00 00 
    853     10850.867 DT     07A2 Rx 8  12 02 36 0C 01 1C 08 D8 
    854     10852.248 DT     07AA Rx 8  30 00 00 00 00 00 00 00 
    855     10853.631 DT     07A2 Rx 8  21 00 28 0F 02 23 20 00 
    856     10853.854 DT     07A2 Rx 8  22 04 A1 40 86 E8 FD 65 
    857     10854.039 DT     07A2 Rx 8  23 F9 0E 45 93 0C 70 C8 
    858     10854.139 DT     07A2 Rx 8  24 C6 E0 78 2C 70 8A 22 
    859     10854.233 DT     07A2 Rx 8  25 04 00 2C A0 2B A0 21 
    860     10854.325 DT     07A2 Rx 8  26 A0 20 A8 22 A0 23 A0 
    861     10854.416 DT     07A2 Rx 8  27 24 A0 25 A0 38 A8 2D 
    862     10854.528 DT     07A2 Rx 8  28 B0 2E B0 2F B0 22 18 
    863     10854.671 DT     07A2 Rx 8  29 45 00 50 B0 24 18 42 
    864     10854.767 DT     07A2 Rx 8  2A 00 25 18 42 00 26 18 
    865     10854.858 DT     07A2 Rx 8  2B 42 00 27 18 42 00 28 
    866     10854.949 DT     07A2 Rx 8  2C 18 42 00 34 18 43 00 
    867     10855.039 DT     07A2 Rx 8  2D 2E A0 3C 18 80 0F 0A 
    868     10855.128 DT     07A2 Rx 8  2E 00 00 00 31 A0 E0 7F 
    869     10855.216 DT     07A2 Rx 8  2F 48 18 42 00 E0 78 5F 
    870     10855.306 DT     07A2 Rx 8  20 20 C1 00 32 21 81 0F 
    871     10855.394 DT     07A2 Rx 8  21 10 21 E6 07 34 70 E0 
    872     10855.482 DT     07A2 Rx 8  22 7C 5F 20 01 03 4C 70 
    873     10855.587 DT     07A2 Rx 8  23 30 21 83 0F 00 80 80 
    874     10855.794 DT     07A2 Rx 8  24 0C 2C 70 00 7B E0 78 
    875     10855.902 DT     07A2 Rx 8  25 E0 7E E0 78 EC 1C C8 
    876     10855.996 DT     07A2 Rx 8  26 B7 42 C0 6F 28 1C 00 
    877     10856.087 DT     07A2 Rx 8  27 04 1C 04 30 00 81 81 
    878     10856.178 DT     07A2 Rx 8  28 C1 0C 1C 03 32 44 C0 
    879     10856.269 DT     07A2 Rx 8  29 76 0C 20 02 0C 70 14 
    880     10856.358 DT     07A2 Rx 8  2A 14 1F 34 E0 7F 0C 70 
    881     10856.447 DT     07A2 Rx 8  2B E0 78 F8 1C 48 B3 04 
    882     10856.537 DT     07A2 Rx 8  2C 1C C0 37 08 45 A6 0E 
    883     10856.626 DT     07A2 Rx 8  2D 60 00 0C 70 41 2D 80 
    884     10856.715 DT     07A2 Rx 8  2E 17 5F 20 C1 00 32 21 
    885     10856.825 DT     07A2 Rx 8  2F 81 0F 10 21 E4 07 0C 
    886     10856.943 DT     07A2 Rx 8  20 E9 5F 20 02 03 53 25 
    887     10857.033 DT     07A2 Rx 8  21 01 17 30 22 83 0F 00 
    888     10857.124 DT     07A2 Rx 8  22 80 78 0C 60 7B 4A 22 
    889     10857.213 DT     07A2 Rx 8  23 00 00 04 14 1F 30 E0 
    890     10857.301 DT     07A2 Rx 8  24 7F 08 14 0D 34 E0 78 
    891     10857.390 DT     07A2 Rx 8  25 F4 1C 48 B3 41 C6 08 
    892     10857.478 DT     07A2 Rx 8  26 1C C0 37 CB 45 10 21 
    893     10857.621 DT     07A2 Rx 8  27 3C 0E 00 8D 15 08 71 
    894     10857.719 DT     07A2 Rx 8  28 00 2C 70 C3 40 0F 21 
    895     10857.812 DT     07A2 Rx 8  29 F0 F3 6A 0F 00 06 2C 
    896     10857.903 DT     07A2 Rx 8  2A F0 CB 46 00 80 5C 0D 
    897     10857.995 DT     07A2 Rx 8  2B 2E 08 A0 00 00 86 39 
    898     10858.089 DT     07A2 Rx 8  2C 16 80 10 14 70 18 00 
    899     10858.179 DT     07A2 Rx 8  2D 21 00 0C 70 44 16 01 
    900     10858.267 DT     07A2 Rx 8  2E 10 21 09 95 00 7C 1E 
    901     10858.355 DT     07A2 Rx 8  2F 01 10 78 1E 01 10 0E 
    902     10858.445 DT     07A2 Rx 8  20 A6 15 A6 14 A6 13 A6 
    903     10858.535 DT     07A2 Rx 8  21 12 A6 11 A6 10 A6 0F 
    904     10858.624 DT     07A2 Rx 8  22 A6 38 1E 03 11 1F A6 
    905     10858.713 DT     07A2 Rx 8  23 1E A6 8C 1E 00 10 88 
    906     10858.802 DT     07A2 Rx 8  24 1E 00 10 04 A6 14 A6 
    907     10858.890 DT     07A2 Rx 8  25 02 1D 02 10 00 1D 43 
    908     10858.978 DT     07A2 Rx 8  26 10 08 14 1F 30 01 C6 
    909     10859.130 DT     07A2 Rx 8  27 E0 7F 0C 14 0D 34 DC 
    910     10859.234 DT     07A2 Rx 8  28 1C 48 B3 41 C6 42 C7 
    911     10859.327 DT     07A2 Rx 8  29 0C 1C 00 34 10 1C 40 
    912     10859.417 DT     07A2 Rx 8  2A 34 14 1C C0 37 D3 40 
    913     10859.508 DT     07A2 Rx 8  2B 10 21 80 0D BC 10 80 
    914     10859.596 DT     07A2 Rx 8  2C 20 14 71 92 F4 CB 47 
    915     10859.685 DT     07A2 Rx 8  2D 00 80 54 0D 46 17 00 
    916     10859.773 DT     07A2 Rx 8  2E 11 C9 08 10 00 43 17 
    917     10859.860 DT     07A2 Rx 8  2F 81 10 41 09 30 00 04 
    918     10859.949 DT     07A2 Rx 8  20 77 13 87 5A 20 00 0A 
    919     10860.046 DT     07A2 Rx 8  21 00 20 0E 20 12 86 5A 
    920     10860.135 DT     07A2 Rx 8  22 20 11 09 00 20 4D 24 
    921     10860.223 DT     07A2 Rx 8  23 4B 8D 11 0A 30 00 55 
    922     10860.312 DT     07A2 Rx 8  24 27 00 19 76 0C EF FF 
    923     10860.399 DT     07A2 Rx 8  25 8A 21 41 05 41 17 80 
    924     10860.487 DT     07A2 Rx 8  26 10 59 08 B0 00 30 D9 
    925     10860.576 DT     07A2 Rx 8  27 8D 08 F1 00 32 D9 4D 
    926     10860.663 DT     07A2 Rx 8  28 00 00 00 2F 26 08 F0 
    927     10860.754 DT     07A2 Rx 8  29 7C 00 22 00 00 00 00 
    928     10879.356 DT     07AA Rx 8  02 76 0C 00 00 00 00 00 
    929     10881.292 DT     07A2 Rx 8  12 02 36 0D 46 1F 04 10 
    930     10882.247 DT     07AA Rx 8  30 00 00 00 00 00 00 00 
    931     10883.513 DT     07A2 Rx 8  21 41 17 80 10 14 73 CC 
    932     10883.709 DT     07A2 Rx 8  22 20 A2 80 CC 20 62 80 
    933     10883.889 DT     07A2 Rx 8  23 34 F4 08 E8 13 87 61 
    934     10884.120 DT     07A2 Rx 8  24 08 95 00 84 1F 01 10 
    935     10884.348 DT     07A2 Rx 8  25 80 1F 01 10 0C 70 10 
    936     10884.540 DT     07A2 Rx 8  26 A7 17 A7 16 A7 15 A7 
    937     10884.725 DT     07A2 Rx 8  27 14 A7 13 A7 12 A7 44 
    938     10884.907 DT     07A2 Rx 8  28 1F 00 10 41 00 20 00 
    939     10885.129 DT     07A2 Rx 8  29 40 1F 03 11 55 27 00 
    940     10885.343 DT     07A2 Rx 8  2A 19 46 C0 0A 8D 90 1F 
    941     10885.528 DT     07A2 Rx 8  2B 42 10 42 17 81 10 14 
    942     10885.707 DT     07A2 Rx 8  2C 71 0C 73 92 1F 42 10 
    943     10885.896 DT     07A2 Rx 8  2D 54 16 81 10 CA 20 21 
    944     10886.091 DT     07A2 Rx 8  2E 02 47 C0 30 21 00 24 
    945     10886.281 DT     07A2 Rx 8  2F 1E 46 91 1F 42 10 86 
    946     10886.467 DT     07A2 Rx 8  20 C1 BE 18 43 20 60 7A 
    947     10886.652 DT     07A2 Rx 8  21 43 1F 03 10 06 97 23 
    948     10886.835 DT     07A2 Rx 8  22 1C 03 30 4D 08 30 00 
    949     10887.031 DT     07A2 Rx 8  23 29 68 CB 44 00 80 4D 
    950     10887.240 DT     07A2 Rx 8  24 0D 62 6C 40 8B 0D 13 
    951     10887.427 DT     07A2 Rx 8  25 00 00 11 0A 30 00 11 
    952     10887.609 DT     07A2 Rx 8  26 1B 44 00 44 77 00 1B 
    953     10887.791 DT     07A2 Rx 8  27 82 00 2F 26 48 F0 0C 
    954     10887.971 DT     07A2 Rx 8  28 00 01 00 8A 0F 60 00 
    955     10888.162 DT     07A2 Rx 8  29 2C 71 0E F0 20 8C 4B 
    956     10888.349 DT     07A2 Rx 8  2A 69 0D 0A 94 00 27 09 
    957     10888.531 DT     07A2 Rx 8  2B 90 00 69 09 51 00 96 
    958     10888.719 DT     07A2 Rx 8  2C 0E 60 00 4A 21 40 00 
    959     10888.900 DT     07A2 Rx 8  2D 14 14 1F 30 10 14 11 
    960     10889.194 DT     07A2 Rx 8  2E 30 0C 14 10 30 02 C7 
    961     10889.429 DT     07A2 Rx 8  2F 01 C6 E0 7F 24 14 0D 
    962     10889.612 DT     07A2 Rx 8  20 34 20 87 61 09 30 00 
    963     10889.806 DT     07A2 Rx 8  21 55 27 01 1A 1F 1C 40 
    964     10889.985 DT     07A2 Rx 8  22 10 23 8C 00 1C 03 11 
    965     10890.211 DT     07A2 Rx 8  23 24 71 23 AC 5A 20 01 
    966     10890.399 DT     07A2 Rx 8  24 09 02 71 23 81 04 21 
    967     10890.603 DT     07A2 Rx 8  25 82 0F 00 00 FE FF 30 
    968     10890.850 DT     07A2 Rx 8  26 79 1C 21 81 0F CC CC 
    969     10891.047 DT     07A2 Rx 8  27 CD CC 8A E2 23 B9 CA 
    970     10891.232 DT     07A2 Rx 8  28 21 65 00 13 1C 44 10 
    971     10891.409 DT     07A2 Rx 8  29 16 0F 60 00 2C 70 D4 
    972     10891.612 DT     07A2 Rx 8  2A F1 20 87 A5 09 71 80 
    973     10891.791 DT     07A2 Rx 8  2B 40 24 C2 38 27 97 18 
    974     10891.981 DT     07A2 Rx 8  2C 1C 01 30 47 C1 06 0A 
    975     10892.166 DT     07A2 Rx 8  2D 60 00 86 C1 8D 07 CF 
    976     10892.354 DT     07A2 Rx 8  2E FF 23 8C 00 1C 03 11 
    977     10892.539 DT     07A2 Rx 8  2F 24 71 23 AC 5A 20 01 
    978     10892.753 DT     07A2 Rx 8  20 09 02 71 23 81 04 21 
    979     10893.088 DT     07A2 Rx 8  21 82 0F 00 00 FE FF 30 
    980     10893.417 DT     07A2 Rx 8  22 79 1C 21 81 0F CC CC 
    981     10893.750 DT     07A2 Rx 8  23 CD CC 8A E2 23 B9 CA 
    982     10894.062 DT     07A2 Rx 8  24 21 65 00 3D 07 EF FF 
    983     10894.282 DT     07A2 Rx 8  25 13 1C 44 10 14 70 CC 
    984     10894.474 DT     07A2 Rx 8  26 21 22 80 CC 22 22 80 
    985     10894.687 DT     07A2 Rx 8  27 E0 7C 69 6A 70 7B 40 
    986     10894.876 DT     07A2 Rx 8  28 23 7C 00 A8 20 00 02 
    987     10895.053 DT     07A2 Rx 8  29 44 77 50 7B 7C 60 6B 
    988     10895.236 DT     07A2 Rx 8  2A 61 00 1C C2 10 E0 7E 
    989     10895.413 DT     07A2 Rx 8  2B E0 78 14 70 CC 22 22 
    990     10895.631 DT     07A2 Rx 8  2C 80 E0 7C AD 02 CF FF 
    991     10895.839 DT     07A2 Rx 8  2D B8 1C 48 B3 41 C6 42 
    992     10896.025 DT     07A2 Rx 8  2E C7 0C 1C 00 34 10 1C 
    993     10896.204 DT     07A2 Rx 8  2F 40 34 14 1C 80 34 18 
    994     10896.382 DT     07A2 Rx 8  20 1C C0 34 1C 1C 00 35 
    995     10896.572 DT     07A2 Rx 8  21 20 1C 40 35 24 1C 80 
    996     10896.746 DT     07A2 Rx 8  22 35 28 1C C0 35 2C 1C 
    997     10896.889 DT     07A2 Rx 8  23 00 36 30 1C 40 36 34 
    998     10897.078 DT     07A2 Rx 8  24 1C C0 36 38 1C C0 37 
    999     10897.262 DT     07A2 Rx 8  25 CB 45 10 21 C8 0D 08 
   1000     10897.446 DT     07A2 Rx 8  26 44 74 15 80 10 20 DE 
   1001     10897.696 DT     07A2 Rx 8  27 14 71 8A F4 4C 21 00 
   1002     10897.906 DT     07A2 Rx 8  28 80 10 01 21 00 CD 73 
   1003     10898.087 DT     07A2 Rx 8  29 4C 24 80 90 00 00 00 
   1004     10909.342 DT     07AA Rx 8  02 76 0D 00 00 00 00 00 
   1005     10910.724 DT     07A2 Rx 8  12 02 36 0E 04 01 26 00 
   1006     10911.264 DT     07AA Rx 8  30 00 00 00 00 00 00 00 
   1007     10912.353 DT     07A2 Rx 8  21 40 DE 5A 24 14 1A 48 
   1008     10912.454 DT     07A2 Rx 8  22 4D 04 11 11 00 32 20 
   1009     10912.548 DT     07A2 Rx 8  23 0F 05 00 81 D3 46 00 
   1010     10912.655 DT     07A2 Rx 8  24 80 D5 0D 35 08 30 00 
   1011     10912.745 DT     07A2 Rx 8  25 42 26 58 20 2F 26 48 
   1012     10912.835 DT     07A2 Rx 8  26 94 28 00 21 00 42 21 
   1013     10912.924 DT     07A2 Rx 8  27 42 20 2F 22 88 00 40 
   1014     10913.013 DT     07A2 Rx 8  28 22 7C 00 A8 20 80 02 
   1015     10913.100 DT     07A2 Rx 8  29 C5 77 D0 7A 16 22 C3 
   1016     10913.188 DT     07A2 Rx 8  2A 03 4A 60 03 73 00 1B 
   1017     10913.276 DT     07A2 Rx 8  2B 82 00 04 11 11 00 5F 
   1018     10913.365 DT     07A2 Rx 8  2C 27 00 19 DB 43 00 80 
   1019     10913.452 DT     07A2 Rx 8  2D 4C 0D 40 23 13 34 00 
   1020     10913.540 DT     07A2 Rx 8  2E 23 15 30 00 23 13 20 
   1021     10913.644 DT     07A2 Rx 8  2F 01 15 80 20 00 24 59 
   1022     10913.734 DT     07A2 Rx 8  20 23 62 41 14 70 CA 21 
   1023     10913.823 DT     07A2 Rx 8  21 41 06 20 81 CD 70 8D 
   1024     10913.912 DT     07A2 Rx 8  22 09 31 00 16 20 D2 33 
   1025     10914.000 DT     07A2 Rx 8  23 00 12 90 20 6C 20 C1 
   1026     10914.087 DT     07A2 Rx 8  24 20 41 29 01 81 B4 00 
   1027     10914.175 DT     07A2 Rx 8  25 21 00 42 25 17 11 FD 
   1028     10914.262 DT     07A2 Rx 8  26 09 F0 00 34 72 AC F2 
   1029     10914.350 DT     07A2 Rx 8  27 69 09 51 00 09 11 81 
   1030     10914.437 DT     07A2 Rx 8  28 30 34 71 CC 20 21 80 
   1031     10914.523 DT     07A2 Rx 8  29 58 00 22 00 35 6F 42 
   1032     10914.612 DT     07A2 Rx 8  2A 26 40 2D 38 60 00 26 
   1033     10914.702 DT     07A2 Rx 8  2B 4B 20 80 A0 C0 13 80 
   1034     10914.789 DT     07A2 Rx 8  2C 90 15 08 30 00 42 26 
   1035     10914.876 DT     07A2 Rx 8  2D C0 2E 38 60 C0 1B 03 
   1036     10914.963 DT     07A2 Rx 8  2E 90 00 18 05 00 0B 11 
   1037     10915.051 DT     07A2 Rx 8  2F 80 30 88 E0 90 02 21 
   1038     10915.140 DT     07A2 Rx 8  20 00 4C 21 00 A2 C0 E0 
   1039     10915.234 DT     07A2 Rx 8  21 20 00 22 00 42 21 02 
   1040     10915.322 DT     07A2 Rx 8  22 22 43 2A 82 00 15 0A 
   1041     10915.409 DT     07A2 Rx 8  23 D5 03 0A 23 80 0F 00 
   1042     10915.496 DT     07A2 Rx 8  24 00 5F 44 11 23 80 80 
   1043     10915.584 DT     07A2 Rx 8  25 6C 02 02 00 C1 40 38 
   1044     10915.764 DT     07A2 Rx 8  26 14 1F 30 34 14 1B 30 
   1045     10915.867 DT     07A2 Rx 8  27 30 14 19 30 2C 14 18 
   1046     10915.960 DT     07A2 Rx 8  28 30 28 14 17 30 24 14 
   1047     10916.052 DT     07A2 Rx 8  29 16 30 20 14 15 30 1C 
   1048     10916.141 DT     07A2 Rx 8  2A 14 14 30 18 14 13 30 
   1049     10916.231 DT     07A2 Rx 8  2B 14 14 12 30 10 14 11 
   1050     10916.320 DT     07A2 Rx 8  2C 30 0C 14 10 30 02 C7 
   1051     10916.409 DT     07A2 Rx 8  2D 01 C6 E0 7F 48 14 0D 
   1052     10916.498 DT     07A2 Rx 8  2E 34 C5 08 31 80 B5 6F 
   1053     10916.588 DT     07A2 Rx 8  2F 42 26 52 2D 00 25 80 
   1054     10916.678 DT     07A2 Rx 8  20 14 00 26 4B 23 80 A0 
   1055     10916.766 DT     07A2 Rx 8  21 C0 13 80 90 15 08 30 
   1056     10916.853 DT     07A2 Rx 8  22 00 42 26 C0 2E 00 20 
   1057     10916.941 DT     07A2 Rx 8  23 40 03 C0 1B 03 90 00 
   1058     10917.029 DT     07A2 Rx 8  24 18 05 00 4C 21 40 A2 
   1059     10917.117 DT     07A2 Rx 8  25 D8 01 25 00 53 20 D0 
   1060     10917.206 DT     07A2 Rx 8  26 20 16 70 98 03 21 00 
   1061     10917.293 DT     07A2 Rx 8  27 16 26 C0 23 C3 40 0F 
   1062     10917.381 DT     07A2 Rx 8  28 21 CF F3 FE 0A 00 06 
   1063     10917.468 DT     07A2 Rx 8  29 79 07 CF FF 04 15 81 
   1064     10917.555 DT     07A2 Rx 8  2A 20 71 09 11 80 09 11 
   1065     10917.691 DT     07A2 Rx 8  2B 81 30 69 09 51 80 BE 
   1066     10917.834 DT     07A2 Rx 8  2C 42 30 27 01 25 0F 09 
   1067     10917.933 DT     07A2 Rx 8  2D 80 00 00 1B 01 20 0C 
   1068     10918.025 DT     07A2 Rx 8  2E 1D 40 20 15 09 01 03 
   1069     10918.117 DT     07A2 Rx 8  2F 5A 21 01 0A B9 61 09 
   1070     10918.207 DT     07A2 Rx 8  20 11 81 00 45 09 90 80 
   1071     10918.296 DT     07A2 Rx 8  21 41 09 34 A2 14 74 BC 
   1072     10918.386 DT     07A2 Rx 8  22 04 21 00 00 13 10 20 
   1073     10918.475 DT     07A2 Rx 8  23 14 73 BC 04 02 00 00 
   1074     10918.562 DT     07A2 Rx 8  24 15 80 20 14 71 B4 04 
   1075     10918.757 DT     07A2 Rx 8  25 22 00 F8 65 76 18 83 
   1076     10918.860 DT     07A2 Rx 8  26 00 82 09 60 00 0A 20 
   1077     10918.952 DT     07A2 Rx 8  27 00 04 A1 04 00 00 40 
   1078     10919.044 DT     07A2 Rx 8  28 2F 50 11 00 26 15 24 
   1079     10919.135 DT     07A2 Rx 8  29 C0 15 80 A0 00 00 00 
   1080     10939.356 DT     07AA Rx 8  02 76 0E 00 00 00 00 00 
   1081     10941.240 DT     07A2 Rx 8  12 02 36 0F 21 08 91 00 
   1082     10942.250 DT     07AA Rx 8  30 00 00 00 00 00 00 00 
   1083     10943.422 DT     07A2 Rx 8  21 C2 15 80 A0 4C 20 00 
   1084     10943.553 DT     07A2 Rx 8  22 80 F8 06 E2 FF FD 65 
   1085     10943.674 DT     07A2 Rx 8  23 66 40 56 09 60 00 76 
   1086     10943.866 DT     07A2 Rx 8  24 1D 43 10 C0 15 80 A0 
   1087     10943.991 DT     07A2 Rx 8  25 14 71 E4 06 E2 FF 42 
   1088     10944.105 DT     07A2 Rx 8  26 26 43 2D 30 20 C0 20 
   1089     10944.217 DT     07A2 Rx 8  27 30 27 01 25 0C 20 40 
   1090     10944.328 DT     07A2 Rx 8  28 80 D0 06 E2 FF 00 23 
   1091     10944.437 DT     07A2 Rx 8  29 00 34 00 12 82 20 48 
   1092     10944.547 DT     07A2 Rx 8  2A 18 83 00 C3 15 80 A0 
   1093     10944.657 DT     07A2 Rx 8  2B 53 22 C1 00 0C 21 00 
   1094     10944.869 DT     07A2 Rx 8  2C 80 54 01 22 00 42 26 
   1095     10945.145 DT     07A2 Rx 8  2D 40 2B 02 70 00 10 14 
   1096     10945.379 DT     07A2 Rx 8  2E 00 42 21 57 20 CB 44 
   1097     10945.602 DT     07A2 Rx 8  2F 10 21 D0 10 02 24 D2 
   1098     10946.115 DT     07A2 Rx 8  20 25 3C 24 81 24 34 70 
   1099     10946.425 DT     07A2 Rx 8  21 3C 1C 40 35 CA 22 22 
   1100     10946.739 DT     07A2 Rx 8  22 20 00 14 13 10 0C 24 
   1101     10947.000 DT     07A2 Rx 8  23 C0 A5 92 45 CA 25 CD 
   1102     10947.190 DT     07A2 Rx 8  24 25 2F 25 48 95 51 C2 
   1103     10947.315 DT     07A2 Rx 8  25 40 1C 00 34 44 00 21 
   1104     10947.436 DT     07A2 Rx 8  26 00 00 18 80 04 00 23 
   1105     10947.552 DT     07A2 Rx 8  27 90 2F 00 80 94 10 02 
   1106     10947.670 DT     07A2 Rx 8  28 40 2C 70 AA 0F AF FF 
   1107     10947.925 DT     07A2 Rx 8  29 A1 42 42 25 41 20 30 
   1108     10948.116 DT     07A2 Rx 8  2A 79 40 21 7C 00 0A 24 
   1109     10948.295 DT     07A2 Rx 8  2B 80 1F 10 21 D0 10 42 
   1110     10948.476 DT     07A2 Rx 8  2C 26 43 2D 16 26 C0 23 
   1111     10948.660 DT     07A2 Rx 8  2D A8 20 00 02 A5 77 B0 
   1112     10948.904 DT     07A2 Rx 8  2E 79 00 20 42 20 29 60 
   1113     10949.091 DT     07A2 Rx 8  2F 20 AA 00 25 D5 24 0C 
   1114     10949.276 DT     07A2 Rx 8  20 24 C0 A5 34 03 2E 00 
   1115     10949.460 DT     07A2 Rx 8  21 00 1C 40 15 10 C2 00 
   1116     10949.645 DT     07A2 Rx 8  22 22 40 24 B9 08 34 02 
   1117     10949.848 DT     07A2 Rx 8  23 0F C1 42 26 40 29 00 
   1118     10950.004 DT     07A2 Rx 8  24 62 32 70 04 F5 11 C0 
   1119     10950.223 DT     07A2 Rx 8  25 04 71 C3 B8 C3 19 02 
   1120     10950.410 DT     07A2 Rx 8  26 80 42 26 40 2C 58 60 
   1121     10950.597 DT     07A2 Rx 8  27 20 80 11 09 30 00 42 
   1122     10950.783 DT     07A2 Rx 8  28 21 41 80 0C 04 21 00 
   1123     10950.973 DT     07A2 Rx 8  29 00 18 40 00 37 44 04 
   1124     10951.160 DT     07A2 Rx 8  2A 20 81 0F 00 00 FE FF 
   1125     10951.345 DT     07A2 Rx 8  2B 10 78 1C 20 80 0F CC 
   1126     10951.523 DT     07A2 Rx 8  2C CC CD CC 8A E1 42 26 
   1127     10951.752 DT     07A2 Rx 8  2D C1 2E 23 B8 CA 20 65 
   1128     10951.966 DT     07A2 Rx 8  2E 00 59 61 C5 05 EF FF 
   1129     10952.162 DT     07A2 Rx 8  2F 00 B1 0A 11 80 30 2F 
   1130     10952.343 DT     07A2 Rx 8  20 22 47 04 42 0C 20 00 
   1131     10952.532 DT     07A2 Rx 8  21 02 41 14 71 EE F4 C3 
   1132     10952.728 DT     07A2 Rx 8  22 40 0F 21 3E F4 26 09 
   1133     10952.947 DT     07A2 Rx 8  23 00 06 A1 05 CF FF 9C 
   1134     10953.136 DT     07A2 Rx 8  24 05 C2 FF 16 26 C3 23 
   1135     10953.314 DT     07A2 Rx 8  25 A0 8B 40 28 10 22 04 
   1136     10953.500 DT     07A2 Rx 8  26 20 82 2F 00 00 00 0F 
   1137     10953.682 DT     07A2 Rx 8  27 05 22 54 83 68 00 21 
   1138     10953.908 DT     07A2 Rx 8  28 00 C0 E0 C0 E0 CC 20 
   1139     10954.073 DT     07A2 Rx 8  29 22 82 78 05 E2 FF 2F 
   1140     10954.197 DT     07A2 Rx 8  2A 20 47 04 40 24 82 20 
   1141     10954.342 DT     07A2 Rx 8  2B 10 72 68 05 EE FF EE 
   1142     10954.569 DT     07A2 Rx 8  2C 72 38 F0 C0 16 80 A0 
   1143     10954.761 DT     07A2 Rx 8  2D 0A E8 00 83 4C 20 40 
   1144     10954.949 DT     07A2 Rx 8  2E 80 54 05 CD FF 04 18 
   1145     10955.136 DT     07A2 Rx 8  2F 01 30 00 18 01 30 4A 
   1146     10955.320 DT     07A2 Rx 8  20 26 00 10 48 1B 80 33 
   1147     10955.505 DT     07A2 Rx 8  21 64 1B 80 33 60 1B 80 
   1148     10955.688 DT     07A2 Rx 8  22 33 5C 1B 80 33 58 1B 
   1149     10955.893 DT     07A2 Rx 8  23 80 33 54 1B 80 33 50 
   1150     10956.077 DT     07A2 Rx 8  24 1B 80 33 4C 1B 80 33 
   1151     10956.262 DT     07A2 Rx 8  25 25 05 EF FF 48 1B 03 
   1152     10956.446 DT     07A2 Rx 8  26 31 1C 05 E2 FF EE 76 
   1153     10956.628 DT     07A2 Rx 8  27 01 8B 42 8B 18 B8 10 
   1154     10956.836 DT     07A2 Rx 8  28 BA 45 78 43 8B 08 BA 
   1155     10957.023 DT     07A2 Rx 8  29 45 78 44 8B 00 00 00 
   1156     10969.355 DT     07AA Rx 8  02 76 0F 00 00 00 00 00 
   1157     10970.744 DT     07A2 Rx 8  12 02 36 10 05 20 94 00 
   1158     10971.247 DT     07AA Rx 8  30 00 00 00 00 00 00 00 
   1159     10972.371 DT     07A2 Rx 8  21 0C 24 80 AF 00 00 00 
   1160     10972.474 DT     07A2 Rx 8  22 10 F8 04 C5 FF 42 26 
   1161     10972.694 DT     07A2 Rx 8  23 40 29 38 60 00 18 40 
   1162     10972.926 DT     07A2 Rx 8  24 04 42 26 50 2B 3F 44 
   1163     10973.087 DT     07A2 Rx 8  25 00 20 50 20 00 23 5B 
   1164     10973.188 DT     07A2 Rx 8  26 30 4C 70 00 1B 01 20 
   1165     10973.465 DT     07A2 Rx 8  27 00 18 00 25 48 1B 43 
   1166     10973.766 DT     07A2 Rx 8  28 30 0C 1D 00 23 21 09 
   1167     10974.122 DT     07A2 Rx 8  29 B4 20 C1 1B 02 90 02 
   1168     10974.767 DT     07A2 Rx 8  2A 27 40 24 82 70 42 21 
   1169     10975.205 DT     07A2 Rx 8  2B 42 20 05 28 80 00 79 
   1170     10975.467 DT     07A2 Rx 8  2C 22 02 70 00 22 02 00 
   1171     10975.694 DT     07A2 Rx 8  2D 42 26 C0 2D 38 60 00 
   1172     10975.904 DT     07A2 Rx 8  2E 18 05 00 42 26 4E 2E 
   1173     10976.109 DT     07A2 Rx 8  2F C2 13 80 90 3E 66 D3 
   1174     10976.314 DT     07A2 Rx 8  20 45 10 21 D0 10 04 71 
   1175     10976.517 DT     07A2 Rx 8  21 C2 1B 02 90 0E 11 00 
   1176     10976.717 DT     07A2 Rx 8  22 31 00 15 12 20 42 26 
   1177     10976.917 DT     07A2 Rx 8  23 43 2C 00 B6 0C 11 80 
   1178     10977.114 DT     07A2 Rx 8  24 30 42 26 CC 2E 02 21 
   1179     10977.337 DT     07A2 Rx 8  25 D3 25 10 72 CA 22 0D 
   1180     10977.473 DT     07A2 Rx 8  26 00 2F 44 3B 63 99 61 
   1181     10977.592 DT     07A2 Rx 8  27 1C 20 80 0F CC CC CD 
   1182     10977.712 DT     07A2 Rx 8  28 CC C0 1B 83 90 C3 1B 
   1183     10977.827 DT     07A2 Rx 8  29 43 90 23 B8 2F 26 08 
   1184     10977.940 DT     07A2 Rx 8  2A F0 CA 20 61 00 2F 25 
   1185     10978.056 DT     07A2 Rx 8  2B C8 94 40 A3 3C 00 21 
   1186     10978.172 DT     07A2 Rx 8  2C 00 00 B1 00 22 8E 2F 
   1187     10978.361 DT     07A2 Rx 8  2D 00 80 94 10 C1 40 2C 
   1188     10978.468 DT     07A2 Rx 8  2E 70 82 0D AF FF A1 42 
   1189     10978.561 DT     07A2 Rx 8  2F 2F 21 CA 05 22 71 30 
   1190     10978.653 DT     07A2 Rx 8  20 79 40 21 7C 00 16 27 
   1191     10978.793 DT     07A2 Rx 8  21 C0 23 03 70 A8 20 00 
   1192     10978.906 DT     07A2 Rx 8  22 02 A5 77 B0 79 3A 66 
   1193     10978.998 DT     07A2 Rx 8  23 29 60 00 1A 42 00 02 
   1194     10979.087 DT     07A2 Rx 8  24 27 40 24 00 22 D2 24 
   1195     10979.201 DT     07A2 Rx 8  25 82 70 00 1D 80 24 00 
   1196     10979.295 DT     07A2 Rx 8  26 18 00 20 FD 03 EF FF 
   1197     10979.385 DT     07A2 Rx 8  27 CD 70 00 10 90 00 0A 
   1198     10979.474 DT     07A2 Rx 8  28 11 80 30 2F 22 47 04 
   1199     10979.563 DT     07A2 Rx 8  29 76 0A 20 00 02 41 15 
   1200     10979.652 DT     07A2 Rx 8  2A 08 51 00 C3 40 0F 21 
   1201     10979.744 DT     07A2 Rx 8  2B 7A F4 5A 0F C0 05 D5 
   1202     10979.833 DT     07A2 Rx 8  2C 03 CF FF 42 26 40 29 
   1203     10979.922 DT     07A2 Rx 8  2D 8E 70 B8 60 00 18 00 
   1204     10980.010 DT     07A2 Rx 8  2E 05 0C 70 92 B8 00 23 
   1205     10980.098 DT     07A2 Rx 8  2F 41 33 2F 28 1C 00 48 
   1206     10980.186 DT     07A2 Rx 8  20 19 04 00 37 44 42 26 
   1207     10980.273 DT     07A2 Rx 8  21 C2 2E BA 62 04 20 81 
   1208     10980.360 DT     07A2 Rx 8  22 0F 00 00 FE FF 10 78 
   1209     10980.448 DT     07A2 Rx 8  23 1C 20 80 0F CC CC CD 
   1210     10980.534 DT     07A2 Rx 8  24 CC 8A E1 00 1B 00 25 
   1211     10980.621 DT     07A2 Rx 8  25 23 B8 CA 20 65 00 C2 
   1212     10980.709 DT     07A2 Rx 8  26 1B 02 95 0C 1D 00 23 
   1213     10980.802 DT     07A2 Rx 8  27 51 09 75 22 00 B2 D3 
   1214     10980.890 DT     07A2 Rx 8  28 41 10 21 D0 10 3D 08 
   1215     10980.977 DT     07A2 Rx 8  29 30 20 00 11 0D 20 00 
   1216     10981.064 DT     07A2 Rx 8  2A 25 8E 1F 00 80 94 10 
   1217     10981.152 DT     07A2 Rx 8  2B C1 40 2C 70 B6 0C AF 
   1218     10981.240 DT     07A2 Rx 8  2C FF 02 42 42 20 41 20 
   1219     10981.326 DT     07A2 Rx 8  2D 30 79 40 21 7C 00 16 
   1220     10981.413 DT     07A2 Rx 8  2E 26 C0 23 02 43 A8 20 
   1221     10981.499 DT     07A2 Rx 8  2F 00 02 64 77 70 79 3A 
   1222     10981.587 DT     07A2 Rx 8  20 66 29 60 00 1A 42 00 
   1223     10981.676 DT     07A2 Rx 8  21 00 25 0D 14 00 19 40 
   1224     10981.767 DT     07A2 Rx 8  22 23 C0 16 80 A0 08 E8 
   1225     10981.855 DT     07A2 Rx 8  23 46 40 31 08 95 00 04 
   1226     10981.941 DT     07A2 Rx 8  24 18 01 30 00 18 01 30 
   1227     10982.028 DT     07A2 Rx 8  25 48 1B 00 35 64 1B 00 
   1228     10982.114 DT     07A2 Rx 8  26 35 60 1B 00 35 5C 1B 
   1229     10982.201 DT     07A2 Rx 8  27 00 35 58 1B 00 35 54 
   1230     10982.288 DT     07A2 Rx 8  28 1B 00 35 50 1B 00 35 
   1231     10982.378 DT     07A2 Rx 8  29 4C 1B 00 35 00 00 00 
   1232     10999.332 DT     07AA Rx 8  02 76 10 00 00 00 00 00 
   1233     11001.485 DT     07A2 Rx 8  12 02 36 11 48 1B 03 31 
   1234     11002.246 DT     07AA Rx 8  30 00 00 00 00 00 00 00 
   1235     11003.712 DT     07A2 Rx 8  21 00 1E 43 70 10 21 E1 
   1236     11003.987 DT     07A2 Rx 8  22 10 F9 02 EF FF 4A 26 
   1237     11004.097 DT     07A2 Rx 8  23 00 10 10 C1 42 26 40 
   1238     11004.194 DT     07A2 Rx 8  24 29 1D 61 00 85 19 08 
   1239     11004.286 DT     07A2 Rx 8  25 65 04 3C 14 17 30 C3 
   1240     11004.378 DT     07A2 Rx 8  26 40 0F 21 B7 F3 5A 0E 
   1241     11004.473 DT     07A2 Rx 8  27 C0 05 45 00 00 00 C0 
   1242     11004.566 DT     07A2 Rx 8  28 1F 03 A1 C0 16 80 A0 
   1243     11004.656 DT     07A2 Rx 8  29 08 E8 00 83 35 08 95 
   1244     11004.744 DT     07A2 Rx 8  2A 00 04 18 01 30 00 18 
   1245     11004.841 DT     07A2 Rx 8  2B 01 30 4A 20 00 00 48 
   1246     11004.933 DT     07A2 Rx 8  2C 1B 00 30 64 1B 00 30 
   1247     11005.021 DT     07A2 Rx 8  2D 60 1B 00 30 5C 1B 00 
   1248     11005.108 DT     07A2 Rx 8  2E 30 58 1B 00 30 54 1B 
   1249     11005.197 DT     07A2 Rx 8  2F 00 30 50 1B 00 30 4C 
   1250     11005.314 DT     07A2 Rx 8  20 1B 00 30 48 1B 03 31 
   1251     11005.511 DT     07A2 Rx 8  21 00 1E 43 70 10 21 E1 
   1252     11005.741 DT     07A2 Rx 8  22 10 89 02 EF FF 00 1D 
   1253     11005.973 DT     07A2 Rx 8  23 01 10 BE 44 14 71 98 
   1254     11006.187 DT     07A2 Rx 8  24 0B 21 00 0A 20 00 04 
   1255     11006.404 DT     07A2 Rx 8  25 01 15 80 20 14 71 70 
   1256     11006.529 DT     07A2 Rx 8  26 02 C2 FF 00 12 80 20 
   1257     11006.664 DT     07A2 Rx 8  27 C3 B8 79 08 90 00 31 
   1258     11006.921 DT     07A2 Rx 8  28 08 70 00 35 6F 71 08 
   1259     11007.102 DT     07A2 Rx 8  29 31 00 6F 28 9C 00 00 
   1260     11007.282 DT     07A2 Rx 8  2A 1D 04 20 16 26 C0 23 
   1261     11007.585 DT     07A2 Rx 8  2B 20 88 01 10 80 00 14 
   1262     11007.830 DT     07A2 Rx 8  2C 1D 45 20 03 1D 43 20 
   1263     11008.060 DT     07A2 Rx 8  2D 1C 1D 40 20 39 02 EF 
   1264     11008.300 DT     07A2 Rx 8  2E FF 02 1D 02 20 42 26 
   1265     11008.548 DT     07A2 Rx 8  2F C0 2D 42 26 42 2E 38 
   1266     11008.733 DT     07A2 Rx 8  20 60 52 61 20 90 39 09 
   1267     11008.855 DT     07A2 Rx 8  21 A5 00 24 71 5A 20 10 
   1268     11009.030 DT     07A2 Rx 8  22 29 20 B0 02 75 C8 15 
   1269     11009.174 DT     07A2 Rx 8  23 00 90 04 20 81 0F 00 
   1270     11009.295 DT     07A2 Rx 8  24 00 FE FF 10 78 1C 20 
   1271     11009.663 DT     07A2 Rx 8  25 80 0F CC CC CD CC 8A 
   1272     11009.950 DT     07A2 Rx 8  26 E1 41 28 C0 00 CA 20 
   1273     11010.224 DT     07A2 Rx 8  27 65 00 F5 01 EF FF 14 
   1274     11010.438 DT     07A2 Rx 8  28 1D 04 20 66 40 3E 0E 
   1275     11010.695 DT     07A2 Rx 8  29 20 00 2C 71 E5 01 CF 
   1276     11010.887 DT     07A2 Rx 8  2A FF CD 70 15 09 B4 20 
   1277     11011.072 DT     07A2 Rx 8  2B 8D 70 05 2A D2 25 79 
   1278     11011.260 DT     07A2 Rx 8  2C 22 01 70 00 22 4C 20 
   1279     11011.486 DT     07A2 Rx 8  2D 0F C7 40 14 17 30 42 
   1280     11011.695 DT     07A2 Rx 8  2E 26 C1 2D 42 26 42 2E 
   1281     11011.878 DT     07A2 Rx 8  2F E2 71 00 19 05 00 E2 
   1282     11012.063 DT     07A2 Rx 8  20 72 C2 17 81 90 42 26 
   1283     11012.241 DT     07A2 Rx 8  21 C3 2E E2 73 24 71 C2 
   1284     11012.431 DT     07A2 Rx 8  22 1F 42 90 0E 11 01 31 
   1285     11012.563 DT     07A2 Rx 8  23 C0 1F 83 90 20 B2 0C 
   1286     11012.681 DT     07A2 Rx 8  24 11 81 30 30 74 CA 24 
   1287     11012.949 DT     07A2 Rx 8  25 4D 10 80 A0 2F 44 1C 
   1288     11013.266 DT     07A2 Rx 8  26 20 80 0F CC CC CD CC 
   1289     11013.646 DT     07A2 Rx 8  27 23 B8 2F 26 08 F0 CA 
   1290     11013.991 DT     07A2 Rx 8  28 20 61 00 7D 01 EF FF 
   1291     11014.277 DT     07A2 Rx 8  29 00 B3 E0 78 1B 08 71 
   1292     11014.535 DT     07A2 Rx 8  2A 00 09 69 41 0A 54 02 
   1293     11014.746 DT     07A2 Rx 8  2B 89 08 B5 0F 02 69 50 
   1294     11014.924 DT     07A2 Rx 8  2C 70 80 00 2D 00 0C 70 
   1295     11015.115 DT     07A2 Rx 8  2D E0 7E 42 22 00 03 04 
   1296     11015.291 DT     07A2 Rx 8  2E 20 83 0F 00 00 FC 00 
   1297     11015.572 DT     07A2 Rx 8  2F 22 BB 06 B8 65 78 0F 
   1298     11015.760 DT     07A2 Rx 8  20 78 39 08 95 03 F0 26 
   1299     11015.947 DT     07A2 Rx 8  21 00 70 0F 21 E8 FC 00 
   1300     11016.132 DT     07A2 Rx 8  22 78 68 B9 4D 00 20 00 
   1301     11016.316 DT     07A2 Rx 8  23 34 73 4D 08 F5 01 50 
   1302     11016.522 DT     07A2 Rx 8  24 71 20 F0 6B B9 3D 00 
   1303     11016.709 DT     07A2 Rx 8  25 20 00 34 74 6F B9 35 
   1304     11016.888 DT     07A2 Rx 8  26 00 20 00 34 74 73 B9 
   1305     11017.065 DT     07A2 Rx 8  27 2D 00 20 00 34 74 2D 
   1306     11017.234 DT     07A2 Rx 8  28 0A F4 00 09 6A 30 70 
   1307     11017.469 DT     07A2 Rx 8  29 0C 70 E0 7C 00 00 00 
   1308     11029.338 DT     07AA Rx 8  02 76 11 00 00 00 00 00 
   1309     11031.034 DT     07A2 Rx 8  12 02 36 12 10 F0 77 B9 
   1310     11032.256 DT     07AA Rx 8  30 00 00 00 00 00 00 00 
   1311     11033.362 DT     07A2 Rx 8  21 15 00 20 00 88 E1 7F 
   1312     11033.465 DT     07A2 Rx 8  22 B9 0D 00 20 00 90 E1 
   1313     11033.558 DT     07A2 Rx 8  23 42 21 C0 0B 90 E0 4A 
   1314     11033.649 DT     07A2 Rx 8  24 20 00 00 E0 20 C5 07 
   1315     11033.739 DT     07A2 Rx 8  25 E0 7F 0C 71 F8 1C C8 
   1316     11033.829 DT     07A2 Rx 8  26 B7 14 70 07 1C 03 30 
   1317     11033.918 DT     07A2 Rx 8  27 44 00 22 00 30 D8 C3 
   1318     11034.052 DT     07A2 Rx 8  28 42 10 21 8C 0D B0 12 
   1319     11034.167 DT     07A2 Rx 8  29 80 00 35 08 71 00 20 
   1320     11034.262 DT     07A2 Rx 8  2A D8 1D E9 04 11 0B 00 
   1321     11034.354 DT     07A2 Rx 8  2B 37 0B 10 10 00 81 1B 
   1322     11034.445 DT     07A2 Rx 8  2C E8 2C 8A C3 43 00 80 
   1323     11034.535 DT     07A2 Rx 8  2D 4C 0D 5F 21 01 09 00 
   1324     11034.624 DT     07A2 Rx 8  2E 23 48 00 01 10 81 10 
   1325     11034.714 DT     07A2 Rx 8  2F 19 E9 09 00 20 00 8A 
   1326     11034.804 DT     07A2 Rx 8  20 20 82 0C 07 1C 02 30 
   1327     11034.892 DT     07A2 Rx 8  21 4A 20 40 00 08 14 1F 
   1328     11034.982 DT     07A2 Rx 8  22 34 E0 7E F9 07 EF FF 
   1329     11035.071 DT     07A2 Rx 8  23 07 1C C3 30 0C 70 B2 
   1330     11035.160 DT     07A2 Rx 8  24 08 20 00 40 24 C2 31 
   1331     11035.249 DT     07A2 Rx 8  25 08 14 1F 34 E0 7E 20 
   1332     11035.338 DT     07A2 Rx 8  26 18 00 10 0D 8A 01 18 
   1333     11035.426 DT     07A2 Rx 8  27 C3 10 41 08 71 00 7D 
   1334     11035.514 DT     07A2 Rx 8  28 23 00 12 00 16 81 70 
   1335     11035.602 DT     07A2 Rx 8  29 10 21 8B 0D 42 21 00 
   1336     11035.691 DT     07A2 Rx 8  2A 02 04 20 83 0F 00 00 
   1337     11035.780 DT     07A2 Rx 8  2B FC 00 22 BB 06 B8 65 
   1338     11035.867 DT     07A2 Rx 8  2C 78 0F 7B B5 0B F5 83 
   1339     11035.955 DT     07A2 Rx 8  2D 0C 71 CB 44 00 00 5E 
   1340     11036.181 DT     07A2 Rx 8  2E 44 59 0C CE 10 40 23 
   1341     11036.368 DT     07A2 Rx 8  2F 80 10 09 00 20 00 3C 
   1342     11036.547 DT     07A2 Rx 8  20 21 00 00 00 18 02 10 
   1343     11036.727 DT     07A2 Rx 8  21 04 10 80 10 16 18 C4 
   1344     11036.905 DT     07A2 Rx 8  22 12 18 18 05 10 04 71 
   1345     11037.171 DT     07A2 Rx 8  23 04 18 02 10 00 82 04 
   1346     11037.447 DT     07A2 Rx 8  24 20 81 0F 00 00 FE FF 
   1347     11037.744 DT     07A2 Rx 8  25 10 78 1C 20 80 0F CC 
   1348     11038.022 DT     07A2 Rx 8  26 CC CD CC 8A E1 2C 71 
   1349     11038.249 DT     07A2 Rx 8  27 23 B8 CA 20 65 00 14 
   1350     11038.387 DT     07A2 Rx 8  28 18 04 10 1A 0D 20 00 
   1351     11038.508 DT     07A2 Rx 8  29 0C 70 08 14 1F 34 E0 
   1352     11038.627 DT     07A2 Rx 8  2A 7F 4A 20 00 00 51 0B 
   1353     11038.743 DT     07A2 Rx 8  2B 11 80 40 23 40 10 B1 
   1354     11038.859 DT     07A2 Rx 8  2C 07 EF FF 7D 20 40 02 
   1355     11038.984 DT     07A2 Rx 8  2D F1 C0 11 08 30 00 30 
   1356     11039.169 DT     07A2 Rx 8  2E D8 3D 00 20 00 00 1A 
   1357     11039.450 DT     07A2 Rx 8  2F 02 00 18 E9 21 81 2D 
   1358     11039.731 DT     07A2 Rx 8  20 09 30 00 0C 71 12 EA 
   1359     11040.005 DT     07A2 Rx 8  21 CB 41 10 21 8C 0D 0C 
   1360     11040.301 DT     07A2 Rx 8  22 11 86 10 CB 40 00 80 
   1361     11040.492 DT     07A2 Rx 8  23 4C 0D 5F 26 0C 09 00 
   1362     11040.622 DT     07A2 Rx 8  24 20 03 13 81 8B 0C EC 
   1363     11040.739 DT     07A2 Rx 8  25 B2 D9 20 AA D1 C0 E0 
   1364     11040.855 DT     07A2 Rx 8  26 7E 00 1A C3 00 D1 C0 
   1365     11040.993 DT     07A2 Rx 8  27 E0 7F 4A 20 40 00 0D 
   1366     11041.187 DT     07A2 Rx 8  28 11 82 10 3D 0A 71 00 
   1367     11041.365 DT     07A2 Rx 8  29 7D 21 02 02 00 16 8B 
   1368     11041.545 DT     07A2 Rx 8  2A 70 10 21 8B 0D 42 23 
   1369     11041.723 DT     07A2 Rx 8  2B 0C 12 04 24 82 1F 00 
   1370     11041.900 DT     07A2 Rx 8  2C 00 FC 00 22 BA 06 BC 
   1371     11042.076 DT     07A2 Rx 8  2D 85 7A 4F 7C C9 0C D5 
   1372     11042.199 DT     07A2 Rx 8  2E 93 C3 42 00 00 5E 44 
   1373     11042.315 DT     07A2 Rx 8  2F 5D 0A 0E 03 02 69 09 
   1374     11042.431 DT     07A2 Rx 8  20 00 20 00 3C 23 02 10 
   1375     11042.545 DT     07A2 Rx 8  21 55 20 80 1A 16 20 80 
   1376     11042.659 DT     07A2 Rx 8  22 01 08 A3 04 8B 2B B3 
   1377     11042.772 DT     07A2 Rx 8  23 01 1B C3 00 04 71 04 
   1378     11042.885 DT     07A2 Rx 8  24 AB 25 40 18 1B 05 00 
   1379     11043.096 DT     07A2 Rx 8  25 40 AB 04 20 81 0F 00 
   1380     11043.306 DT     07A2 Rx 8  26 00 FE FF 10 78 1C 20 
   1381     11043.516 DT     07A2 Rx 8  27 80 0F CC CC CD CC 8A 
   1382     11043.644 DT     07A2 Rx 8  28 E1 2C 70 23 B8 CA 20 
   1383     11043.765 DT     07A2 Rx 8  29 65 00 0A B3 00 00 00 
   1384     11059.333 DT     07AA Rx 8  02 76 12 00 00 00 00 00 
   1385     11061.356 DT     07A2 Rx 8  12 02 36 13 0C 70 32 0C 
   1386     11062.253 DT     07AA Rx 8  30 00 00 00 00 00 00 00 
   1387     11063.381 DT     07A2 Rx 8  21 20 00 08 1B 41 00 D1 
   1388     11063.578 DT     07A2 Rx 8  22 C0 E0 7F 0C 70 65 0C 
   1389     11063.691 DT     07A2 Rx 8  23 11 90 01 69 B1 07 EF 
   1390     11063.787 DT     07A2 Rx 8  24 FF 7D 20 42 02 E0 78 
   1391     11063.882 DT     07A2 Rx 8  25 5A 20 0C 09 CB 40 10 
   1392     11064.081 DT     07A2 Rx 8  26 21 90 0D CB 41 00 80 
   1393     11064.210 DT     07A2 Rx 8  27 4D 0D 00 20 01 13 28 
   1394     11064.306 DT     07A2 Rx 8  28 89 40 21 C3 15 40 21 
   1395     11064.399 DT     07A2 Rx 8  29 42 15 5F 21 01 09 52 
   1396     11064.494 DT     07A2 Rx 8  2A 61 73 61 49 0B A5 00 
   1397     11064.586 DT     07A2 Rx 8  2B 00 21 46 10 04 16 80 
   1398     11064.677 DT     07A2 Rx 8  2C 00 04 71 8B 20 03 8C 
   1399     11064.768 DT     07A2 Rx 8  2D C0 78 04 1E 02 00 01 
   1400     11064.860 DT     07A2 Rx 8  2E 16 80 00 04 20 8B 8F 
   1401     11065.011 DT     07A2 Rx 8  2F 00 00 80 00 2C 00 22 
   1402     11065.104 DT     07A2 Rx 8  20 00 40 20 C2 03 35 08 
   1403     11065.193 DT     07A2 Rx 8  21 30 00 6C 71 40 20 42 
   1404     11065.285 DT     07A2 Rx 8  22 02 1C 22 82 0F CC CC 
   1405     11065.375 DT     07A2 Rx 8  23 CD CC 23 BA 21 00 20 
   1406     11065.464 DT     07A2 Rx 8  24 00 61 6A C9 02 20 00 
   1407     11065.552 DT     07A2 Rx 8  25 4A 21 40 00 4F 7A 89 
   1408     11065.642 DT     07A2 Rx 8  26 E2 4A 23 40 00 09 00 
   1409     11065.739 DT     07A2 Rx 8  27 20 00 CA 23 66 03 40 
   1410     11065.828 DT     07A2 Rx 8  28 21 C2 16 3A 62 02 1E 
   1411     11066.236 DT     07A2 Rx 8  29 C2 00 60 82 2D 0B 30 
   1412     11066.475 DT     07A2 Rx 8  2A 00 42 23 43 80 40 00 
   1413     11066.615 DT     07A2 Rx 8  2B 21 00 60 A2 69 0B 31 
   1414     11066.741 DT     07A2 Rx 8  2C 10 4C 71 81 08 30 00 
   1415     11066.837 DT     07A2 Rx 8  2D 4C 71 09 E0 1C 20 80 
   1416     11066.931 DT     07A2 Rx 8  2E 0F CC CC CD CC 23 B8 
   1417     11067.021 DT     07A2 Rx 8  2F 71 00 20 00 41 68 59 
   1418     11067.172 DT     07A2 Rx 8  20 0B 11 10 75 08 30 00 
   1419     11067.263 DT     07A2 Rx 8  21 09 E0 1C 20 80 0F CC 
   1420     11067.354 DT     07A2 Rx 8  22 CC CD CC 23 B8 69 00 
   1421     11067.444 DT     07A2 Rx 8  23 20 00 40 20 40 00 30 
   1422     11067.534 DT     07A2 Rx 8  24 24 00 12 40 21 C3 14 
   1423     11067.623 DT     07A2 Rx 8  25 79 61 04 20 82 0F 00 
   1424     11067.711 DT     07A2 Rx 8  26 00 FE FF 10 78 1C 20 
   1425     11067.801 DT     07A2 Rx 8  27 80 0F CC CC CD CC 8A 
   1426     11067.889 DT     07A2 Rx 8  28 E2 00 1E 43 00 23 B8 
   1427     11068.092 DT     07A2 Rx 8  29 CA 20 65 00 E0 7F 00 
   1428     11068.215 DT     07A2 Rx 8  2A B1 0F E0 0F 78 4C 20 
   1429     11068.309 DT     07A2 Rx 8  2B 40 82 19 00 20 00 CA 
   1430     11068.402 DT     07A2 Rx 8  2C 22 66 03 0F E0 0F 78 
   1431     11068.493 DT     07A2 Rx 8  2D 89 E0 0C 71 1D 00 20 
   1432     11068.592 DT     07A2 Rx 8  2E 00 CA 20 66 03 40 21 
   1433     11068.682 DT     07A2 Rx 8  2F C0 14 38 60 4F 79 00 
   1434     11068.773 DT     07A2 Rx 8  20 1E 83 00 E0 7F 20 B0 
   1435     11068.863 DT     07A2 Rx 8  21 4A 20 40 00 40 21 C9 
   1436     11069.094 DT     07A2 Rx 8  22 14 21 71 0F 78 00 1E 
   1437     11069.213 DT     07A2 Rx 8  23 83 00 E0 7F 00 B1 E0 
   1438     11069.309 DT     07A2 Rx 8  24 1C 48 B3 41 C6 42 C7 
   1439     11069.400 DT     07A2 Rx 8  25 0C 1C 00 34 10 1C 40 
   1440     11069.491 DT     07A2 Rx 8  26 34 14 1C 80 34 18 1C 
   1441     11069.626 DT     07A2 Rx 8  27 C0 34 1C 1C C0 37 CB 
   1442     11069.724 DT     07A2 Rx 8  28 44 10 21 80 0D BC 14 
   1443     11069.816 DT     07A2 Rx 8  29 81 10 34 71 C3 41 0F 
   1444     11069.909 DT     07A2 Rx 8  2A 21 77 F3 08 F4 19 08 
   1445     11070.204 DT     07A2 Rx 8  2B 30 00 20 40 EA 08 C0 
   1446     11070.455 DT     07A2 Rx 8  2C 05 86 F0 E2 08 E0 05 
   1447     11070.768 DT     07A2 Rx 8  2D 55 21 00 0A 01 01 00 
   1448     11071.097 DT     07A2 Rx 8  2E 00 D8 8C 00 26 8F 1F 
   1449     11071.341 DT     07A2 Rx 8  2F 10 21 3E 0E 00 8F 55 
   1450     11071.523 DT     07A2 Rx 8  20 08 70 00 75 6E E9 08 
   1451     11071.700 DT     07A2 Rx 8  21 91 00 5F 26 00 19 C3 
   1452     11071.879 DT     07A2 Rx 8  22 42 00 80 4C 0D 1D 62 
   1453     11072.104 DT     07A2 Rx 8  23 01 15 90 10 89 08 30 
   1454     11072.270 DT     07A2 Rx 8  24 21 0C 70 C1 08 F1 20 
   1455     11072.512 DT     07A2 Rx 8  25 58 49 00 8D E7 08 10 
   1456     11072.727 DT     07A2 Rx 8  26 00 04 84 01 1D 43 10 
   1457     11072.921 DT     07A2 Rx 8  27 04 20 81 0F 00 00 FE 
   1458     11073.083 DT     07A2 Rx 8  28 FF 10 78 1C 20 80 0F 
   1459     11073.207 DT     07A2 Rx 8  29 CC CC CD CC 00 00 00 
   1460     11089.336 DT     07AA Rx 8  02 76 13 00 00 00 00 00 
   1461     11090.749 DT     07A2 Rx 8  12 02 36 14 8A E1 23 B8 
   1462     11091.261 DT     07AA Rx 8  30 00 00 00 00 00 00 00 
   1463     11092.428 DT     07A2 Rx 8  21 CA 20 65 00 A1 00 20 
   1464     11092.528 DT     07A2 Rx 8  22 00 14 1D 04 10 CB 46 
   1465     11092.969 DT     07A2 Rx 8  23 00 80 95 0D D8 63 40 
   1466     11093.324 DT     07A2 Rx 8  24 88 4D 0A D0 00 85 0A 
   1467     11093.627 DT     07A2 Rx 8  25 B1 00 45 6E 00 18 43 
   1468     11093.931 DT     07A2 Rx 8  26 00 30 23 80 0F 00 80 
   1469     11094.121 DT     07A2 Rx 8  27 A0 0D 7A 62 5A 20 00 
   1470     11094.248 DT     07A2 Rx 8  28 0A 98 60 18 80 04 20 
   1471     11094.345 DT     07A2 Rx 8  29 81 0F 00 00 FE FF 10 
   1472     11094.438 DT     07A2 Rx 8  2A 78 1C 20 80 0F CC CC 
   1473     11094.530 DT     07A2 Rx 8  2B CD CC 8A E1 23 B8 CA 
   1474     11094.622 DT     07A2 Rx 8  2C 20 65 00 55 00 20 00 
   1475     11094.712 DT     07A2 Rx 8  2D 00 1A 04 00 C6 0D CF 
   1476     11094.802 DT     07A2 Rx 8  2E FF 49 00 00 00 00 8E 
   1477     11094.942 DT     07A2 Rx 8  2F 0C E8 C3 40 00 80 A0 
   1478     11095.036 DT     07A2 Rx 8  20 0D 20 80 39 09 95 00 
   1479     11095.130 DT     07A2 Rx 8  21 38 18 01 00 34 18 01 
   1480     11095.221 DT     07A2 Rx 8  22 00 0C 70 C3 41 00 80 
   1481     11095.312 DT     07A2 Rx 8  23 94 0D 00 A1 07 A1 06 
   1482     11095.401 DT     07A2 Rx 8  24 A1 05 A1 04 A1 03 A1 
   1483     11095.490 DT     07A2 Rx 8  25 02 A1 01 A1 15 00 20 
   1484     11095.578 DT     07A2 Rx 8  26 00 00 19 03 01 09 00 
   1485     11095.759 DT     07A2 Rx 8  27 00 00 40 21 C0 04 E2 
   1486     11095.858 DT     07A2 Rx 8  28 0F 80 05 00 1F 03 10 
   1487     11095.949 DT     07A2 Rx 8  29 1C 14 1F 30 18 14 13 
   1488     11096.039 DT     07A2 Rx 8  2A 30 14 14 12 30 10 14 
   1489     11096.143 DT     07A2 Rx 8  2B 11 30 0C 14 10 30 02 
   1490     11096.232 DT     07A2 Rx 8  2C C7 01 C6 E0 7F 20 14 
   1491     11096.321 DT     07A2 Rx 8  2D 0D 34 00 16 00 70 10 
   1492     11096.408 DT     07A2 Rx 8  2E 21 F4 10 49 08 81 0F 
   1493     11096.495 DT     07A2 Rx 8  2F 00 00 55 AA 00 16 00 
   1494     11096.585 DT     07A2 Rx 8  20 70 10 21 F8 10 11 08 
   1495     11096.674 DT     07A2 Rx 8  21 D5 01 F0 26 00 70 0F 
   1496     11096.762 DT     07A2 Rx 8  22 21 20 FD 00 78 25 00 
   1497     11096.906 DT     07A2 Rx 8  23 20 00 8A 20 9E 0B 1D 
   1498     11096.998 DT     07A2 Rx 8  24 00 20 00 8A 20 1E 0A 
   1499     11097.128 DT     07A2 Rx 8  25 15 00 20 00 8A 20 9E 
   1500     11097.241 DT     07A2 Rx 8  26 0A 0D 00 20 00 8A 20 
   1501     11097.335 DT     07A2 Rx 8  27 DE 0A 8A 20 5E 0B 00 
   1502     11097.425 DT     07A2 Rx 8  28 1C 00 10 0C 15 12 10 
   1503     11097.515 DT     07A2 Rx 8  29 10 15 13 10 2E 70 A1 
   1504     11097.604 DT     07A2 Rx 8  2A 40 2C 70 24 DA 2A 0D 
   1505     11097.692 DT     07A2 Rx 8  2B 6F FF 18 1C 42 14 00 
   1506     11097.781 DT     07A2 Rx 8  2C 1D 03 11 10 1D C0 14 
   1507     11097.868 DT     07A2 Rx 8  2D 71 08 30 A0 0C 1D 80 
   1508     11097.955 DT     07A2 Rx 8  2E 14 C3 40 00 80 E4 0D 
   1509     11098.043 DT     07A2 Rx 8  2F D6 78 04 18 40 04 5D 
   1510     11098.135 DT     07A2 Rx 8  20 07 EF FF 00 18 40 04 
   1511     11098.222 DT     07A2 Rx 8  21 E0 1C 48 B3 41 C6 42 
   1512     11098.310 DT     07A2 Rx 8  22 C7 0C 1C 00 34 10 1C 
   1513     11098.398 DT     07A2 Rx 8  23 40 34 14 1C 80 34 18 
   1514     11098.485 DT     07A2 Rx 8  24 1C C0 34 1C 1C C0 37 
   1515     11098.573 DT     07A2 Rx 8  25 5A 20 00 09 30 40 C3 
   1516     11098.660 DT     07A2 Rx 8  26 41 10 21 80 0D 19 61 
   1517     11098.748 DT     07A2 Rx 8  27 00 16 00 70 10 21 F4 
   1518     11098.835 DT     07A2 Rx 8  28 10 18 11 91 00 49 08 
   1519     11098.924 DT     07A2 Rx 8  29 81 0F 00 00 55 AA 00 
   1520     11099.013 DT     07A2 Rx 8  2A 16 00 70 10 21 F8 10 
   1521     11099.099 DT     07A2 Rx 8  2B 11 08 D5 01 F0 26 00 
   1522     11099.187 DT     07A2 Rx 8  2C 70 0F 21 3C FD 00 78 
   1523     11099.276 DT     07A2 Rx 8  2D 25 00 20 00 8A 20 9E 
   1524     11099.363 DT     07A2 Rx 8  2E 0B 1D 00 20 00 8A 20 
   1525     11099.536 DT     07A2 Rx 8  2F 1E 0A 15 00 20 00 8A 
   1526     11099.633 DT     07A2 Rx 8  20 20 9E 0A 0D 00 20 00 
   1527     11099.724 DT     07A2 Rx 8  21 8A 20 DE 0A 8A 20 5E 
   1528     11099.814 DT     07A2 Rx 8  22 0B 00 19 00 00 5F 21 
   1529     11099.902 DT     07A2 Rx 8  23 0E 29 D3 42 00 80 4C 
   1530     11099.990 DT     07A2 Rx 8  24 0D 18 19 03 00 42 76 
   1531     11100.078 DT     07A2 Rx 8  25 01 16 93 10 E3 86 A4 
   1532     11100.166 DT     07A2 Rx 8  26 86 C1 40 2C 70 66 0C 
