;$FILEVERSION=2.0
;$STARTTIME=46080.7444800116
;$COLUMNS=N,O,T,I,d,l,D
;
;   Start time: 2026/2/27 17:52:03.073.0
;   Generated by PCAN-View v5.0.4.860
;   Message   Time    Type ID     Rx/Tx
;   Number    Offset  |    [hex]  |  Data Length
;   |         [ms]    |    |      |  |  Data [hex] ...
;   |         |       |    |      |  |  |
;---+-- ------+------ +- --+----- +- +- +- +- -- -- -- -- -- -- --
      1      5353.169 DT     07A2 Rx 8  02 10 03 00 00 00 00 00 
      2      5356.931 DT     07AA Rx 8  06 50 03 00 32 01 F4 00 
      3      5358.703 DT     07A2 Rx 8  02 27 01 00 00 00 00 00 
      4      5366.894 DT     07AA Rx 8  06 67 01 45 40 47 88 00 
      5      5367.295 DT     07A2 Rx 8  06 27 02 5C 1B F2 A5 00 
      6      5376.889 DT     07AA Rx 8  02 67 02 00 00 00 00 00 
      7      5379.135 DT     07A2 Rx 8  04 31 01 02 03 00 00 00 
      8      5386.911 DT     07AA Rx 8  05 71 01 02 03 00 00 00 
      9      5388.921 DT     07A2 Rx 8  02 10 02 00 00 00 00 00 
     10      5509.564 DT     07AA Rx 8  06 50 02 00 19 01 F4 55 
     11      5614.631 DT     07A2 Rx 8  02 27 03 00 00 00 00 00 
     12      5615.878 DT     07AA Rx 8  06 67 03 3F 4A 15 DE 55 
     13      5616.955 DT     07A2 Rx 8  06 27 04 93 72 99 A6 00 
     14      5619.071 DT     07AA Rx 8  02 67 04 55 55 55 55 55 
     15      5623.511 DT     07A2 Rx 8  10 0D 31 01 FF 00 44 00 
     16      5624.666 DT     07AA Rx 8  30 00 00 55 55 55 55 55 
     17      5626.524 DT     07A2 Rx 8  21 12 00 00 00 04 44 A0 
     18      7082.470 DT     07AA Rx 8  05 71 01 FF 00 04 55 55 
     19      7087.411 DT     07A2 Rx 8  10 0B 34 00 44 00 12 00 
     20      7088.449 DT     07AA Rx 8  30 00 00 55 55 55 55 55 
     21      7089.029 DT     07A2 Rx 8  21 00 00 04 44 A0 00 00 
     22      7090.135 DT     07AA Rx 8  04 74 20 08 00 55 55 55 
     23      7091.510 DT     07A2 Rx 8  18 02 36 01 46 57 41 50 
     24      7094.234 DT     07AA Rx 8  30 00 00 55 55 55 55 55 
     25      7094.567 DT     07A2 Rx 8  21 00 44 04 00 20 2B F9 
     26      7094.704 DT     07A2 Rx 8  22 20 04 00 00 00 00 00 
     27      7094.882 DT     07A2 Rx 8  23 00 00 00 00 00 00 00 
     28      7095.075 DT     07A2 Rx 8  24 00 00 00 00 00 00 00 
     29      7095.202 DT     07A2 Rx 8  25 00 00 00 00 00 00 00 
     30      7095.323 DT     07A2 Rx 8  26 00 00 00 00 00 00 00 
     31      7095.465 DT     07A2 Rx 8  27 00 00 00 00 00 00 00 
     32      7095.653 DT     07A2 Rx 8  28 00 00 00 00 00 00 00 
     33      7095.777 DT     07A2 Rx 8  29 00 00 00 00 3F 6D A7 
     34      7095.907 DT     07A2 Rx 8  2A BE 4D E5 4A 92 66 C4 
     35      7096.043 DT     07A2 Rx 8  2B 39 01 7B 2C 2A 7B 0A 
     36      7096.165 DT     07A2 Rx 8  2C 68 16 FC 88 ED 1C BE 
     37      7096.285 DT     07A2 Rx 8  2D 4D 63 EC 3A 3D BF 86 
     38      7096.425 DT     07A2 Rx 8  2E 07 BD 65 21 8C 7A 8D 
     39      7096.624 DT     07A2 Rx 8  2F 68 BA E5 07 BE C2 4C 
     40      7096.825 DT     07A2 Rx 8  20 3B 4C 05 6D 6A 03 9B 
     41      7096.955 DT     07A2 Rx 8  21 6C 5E A5 87 F4 2B ED 
     42      7097.075 DT     07A2 Rx 8  22 A8 51 8B 98 DE 24 2B 
     43      7097.228 DT     07A2 Rx 8  23 F9 20 69 20 00 80 6A 
     44      7097.497 DT     07A2 Rx 8  24 20 00 01 41 28 00 02 
     45      7097.706 DT     07A2 Rx 8  25 4C 20 00 80 E0 20 81 
     46      7097.883 DT     07A2 Rx 8  26 0F F9 20 08 2C AA 20 
     47      7098.009 DT     07A2 Rx 8  27 81 0C 4C 20 80 80 E0 
     48      7098.204 DT     07A2 Rx 8  28 20 8C 0F F9 20 58 2B 
     49      7098.418 DT     07A2 Rx 8  29 4A 20 40 00 AB 20 C1 
     50      7098.647 DT     07A2 Rx 8  2A 01 AB 20 01 02 AA 20 
     51      7098.867 DT     07A2 Rx 8  2B C1 0D 4C 20 80 80 E0 
     52      7099.057 DT     07A2 Rx 8  2C 20 8C 0F F9 20 74 2B 
     53      7099.244 DT     07A2 Rx 8  2D 4A 20 40 00 6B 20 00 
     54      7099.455 DT     07A2 Rx 8  2E 04 6B 20 40 04 4A 20 
     55      7099.667 DT     07A2 Rx 8  2F 00 00 AB 20 C1 00 6B 
     56      7099.804 DT     07A2 Rx 8  20 20 80 03 AB 20 48 00 
     57      7099.926 DT     07A2 Rx 8  21 6B 26 40 79 FD 20 00 
     58      7100.046 DT     07A2 Rx 8  22 6C 6A 20 80 02 06 20 
     59      7100.165 DT     07A2 Rx 8  23 80 0F 07 00 00 00 05 
     60      7100.285 DT     07A2 Rx 8  24 20 80 0F 01 00 00 00 
     61      7100.404 DT     07A2 Rx 8  25 29 20 00 80 0A 24 80 
     62      7100.522 DT     07A2 Rx 8  26 3F FF 20 FC A0 0A 22 
     63      7100.683 DT     07A2 Rx 8  27 80 3F FD 20 00 14 4A 
     64      7100.815 DT     07A2 Rx 8  28 23 00 30 6A 20 80 02 
     65      7100.935 DT     07A2 Rx 8  29 06 20 80 0F 07 00 00 
     66      7101.055 DT     07A2 Rx 8  2A 00 29 20 00 80 0A 24 
     67      7101.173 DT     07A2 Rx 8  2B 80 3F FF 20 FC A0 0A 
     68      7101.290 DT     07A2 Rx 8  2C 22 80 3F FD 20 00 14 
     69      7101.407 DT     07A2 Rx 8  2D 4A 23 00 30 22 20 80 
     70      7101.524 DT     07A2 Rx 8  2E 0F FC 20 58 4F 22 20 
     71      7101.706 DT     07A2 Rx 8  2F 80 0F FC 20 64 3E 22 
     72      7101.905 DT     07A2 Rx 8  20 20 80 0F FC 20 DC 4C 
     73      7102.090 DT     07A2 Rx 8  21 69 20 40 00 4A 26 00 
     74      7102.509 DT     07A2 Rx 8  22 70 4A 26 00 70 4A 26 
     75      7102.862 DT     07A2 Rx 8  23 00 70 F1 07 CF FF 0A 
     76      7103.040 DT     07A2 Rx 8  24 20 80 0F 00 00 00 00 
     77      7103.161 DT     07A2 Rx 8  25 4C 20 00 80 E2 20 02 
     78      7103.364 DT     07A2 Rx 8  26 00 4A 20 00 00 AB 20 
     79      7103.599 DT     07A2 Rx 8  27 C1 00 6B 20 80 03 AB 
     80      7103.752 DT     07A2 Rx 8  28 20 48 00 6B 26 40 79 
     81      7103.874 DT     07A2 Rx 8  29 F9 20 00 30 6A 20 80 
     82      7103.992 DT     07A2 Rx 8  2A 02 06 20 80 0F 07 00 
     83      7104.108 DT     07A2 Rx 8  2B 00 00 05 20 80 0F 01 
     84      7104.223 DT     07A2 Rx 8  2C 00 00 00 29 20 00 80 
     85      7104.339 DT     07A2 Rx 8  2D 0A 24 80 3F FF 20 FC 
     86      7104.453 DT     07A2 Rx 8  2E 90 0A 22 80 3F FD 20 
     87      7104.669 DT     07A2 Rx 8  2F 00 14 4A 23 00 30 6A 
     88      7104.871 DT     07A2 Rx 8  20 20 80 02 06 20 80 0F 
     89      7105.054 DT     07A2 Rx 8  21 07 00 00 00 29 20 00 
     90      7105.234 DT     07A2 Rx 8  22 80 0A 24 80 3F FF 20 
     91      7105.414 DT     07A2 Rx 8  23 FC 8F 0A 22 80 3F FD 
     92      7105.594 DT     07A2 Rx 8  24 20 00 14 4A 23 00 30 
     93      7105.791 DT     07A2 Rx 8  25 0A 20 80 0F F9 20 80 
     94      7105.923 DT     07A2 Rx 8  26 32 0A 21 80 0F F9 20 
     95      7106.041 DT     07A2 Rx 8  27 80 32 0C 20 40 80 E0 
     96      7106.157 DT     07A2 Rx 8  28 20 81 0F F9 20 B8 2C 
     97      7106.274 DT     07A2 Rx 8  29 0A 23 80 0F FC 20 08 
     98      7106.390 DT     07A2 Rx 8  2A E2 04 11 02 04 04 18 
     99      7106.505 DT     07A2 Rx 8  2B 90 00 0C 20 C0 80 E0 
    100      7106.620 DT     07A2 Rx 8  2C 20 8B 0F F9 20 A4 2C 
    101      7106.765 DT     07A2 Rx 8  2D 0A 20 80 0F FC 20 08 
    102      7106.892 DT     07A2 Rx 8  2E E2 0A 21 80 0F FC 20 
    103      7107.014 DT     07A2 Rx 8  2F 08 E2 0C 20 40 80 E0 
    104      7107.131 DT     07A2 Rx 8  20 20 81 0F F9 20 F0 2C 
    105      7107.249 DT     07A2 Rx 8  21 0A 23 80 0F FD 20 B8 
    106      7107.367 DT     07A2 Rx 8  22 11 04 11 02 04 04 18 
    107      7107.483 DT     07A2 Rx 8  23 90 00 0C 20 C0 80 E0 
    108      7107.599 DT     07A2 Rx 8  24 20 8B 0F F9 20 DC 2C 
    109      7107.786 DT     07A2 Rx 8  25 0A 20 80 0F FD 20 00 
    110      7108.024 DT     07A2 Rx 8  26 14 0A 21 80 0F FD 20 
    111      7108.273 DT     07A2 Rx 8  27 00 14 0C 20 40 80 E0 
    112      7108.528 DT     07A2 Rx 8  28 20 81 0F F9 20 28 2D 
    113      7108.853 DT     07A2 Rx 8  29 0A 23 80 0F FD 20 04 
    114      7109.097 DT     07A2 Rx 8  2A 6F 04 11 02 04 04 18 
    115      7109.303 DT     07A2 Rx 8  2B 90 00 0C 20 C0 80 E0 
    116      7109.537 DT     07A2 Rx 8  2C 20 8B 0F F9 20 14 2D 
    117      7109.840 DT     07A2 Rx 8  2D 0A 20 80 0F FD 20 00 
    118      7110.112 DT     07A2 Rx 8  2E 14 0A 21 80 0F FD 20 
    119      7110.319 DT     07A2 Rx 8  2F 00 14 0C 20 40 80 E0 
    120      7110.522 DT     07A2 Rx 8  20 20 81 0F F9 20 60 2D 
    121      7110.730 DT     07A2 Rx 8  21 00 21 83 0F 00 00 00 
    122      7110.943 DT     07A2 Rx 8  22 00 04 11 02 04 04 18 
    123      7111.147 DT     07A2 Rx 8  23 90 00 0C 21 C0 80 E0 
    124      7111.349 DT     07A2 Rx 8  24 20 8B 0F F9 20 4C 2D 
    125      7111.552 DT     07A2 Rx 8  25 0A 20 80 0F FD 20 20 
    126      7111.788 DT     07A2 Rx 8  26 6F 0A 21 80 0F FF 20 
    127      7112.071 DT     07A2 Rx 8  27 FC 80 0C 20 40 80 E0 
    128      7112.306 DT     07A2 Rx 8  28 20 8A 0F F9 20 90 2D 
    129      7112.533 DT     07A2 Rx 8  29 4A 22 00 00 04 18 90 
    130      7112.766 DT     07A2 Rx 8  2A 00 0C 20 40 80 E0 20 
    131      7112.986 DT     07A2 Rx 8  2B 8B 0F F9 20 80 2D AA 
    132      7113.199 DT     07A2 Rx 8  2C 20 01 02 15 08 1F 00 
    133      7113.408 DT     07A2 Rx 8  2D 4A 20 40 00 AB 20 C1 
    134      7113.684 DT     07A2 Rx 8  2E 02 AA 20 01 02 FD 08 
    135      7113.932 DT     07A2 Rx 8  2F 1F 82 6A 20 40 04 19 
    136      7114.112 DT     07A2 Rx 8  20 08 1F 00 4A 20 40 00 
    137      7114.240 DT     07A2 Rx 8  21 6B 20 00 04 4A 26 00 
    138      7114.359 DT     07A2 Rx 8  22 70 4A 26 00 70 4A 26 
    139      7114.475 DT     07A2 Rx 8  23 00 70 0A 20 80 0F 00 
    140      7114.590 DT     07A2 Rx 8  24 00 00 00 4C 20 00 80 
    141      7114.744 DT     07A2 Rx 8  25 E2 20 02 00 22 20 80 
    142      7114.959 DT     07A2 Rx 8  26 0F FC 20 58 4F 22 20 
    143      7115.141 DT     07A2 Rx 8  27 80 0F F9 20 8C 32 22 
    144      7115.322 DT     07A2 Rx 8  28 20 80 0F FC 20 DC 4C 
    145      7115.750 DT     07A2 Rx 8  29 22 20 80 0F F9 20 80 
    146      7116.060 DT     07A2 Rx 8  2A 32 69 20 40 00 4A 26 
    147      7116.219 DT     07A2 Rx 8  2B 00 70 4A 26 00 70 4A 
    148      7116.339 DT     07A2 Rx 8  2C 26 00 70 F1 07 CF FF 
    149      7116.458 DT     07A2 Rx 8  2D 00 00 00 00 00 00 00 
    150      7116.573 DT     07A2 Rx 8  2E 00 00 00 00 00 00 00 
    151      7116.741 DT     07A2 Rx 8  2F 00 00 00 00 00 00 00 
    152      7116.862 DT     07A2 Rx 8  20 00 00 00 00 00 00 00 
    153      7116.979 DT     07A2 Rx 8  21 00 00 00 00 00 00 00 
    154      7117.095 DT     07A2 Rx 8  22 00 00 00 00 00 00 00 
    155      7117.211 DT     07A2 Rx 8  23 00 00 00 00 00 00 00 
    156      7117.326 DT     07A2 Rx 8  24 00 00 00 00 00 00 00 
    157      7117.443 DT     07A2 Rx 8  25 00 00 00 00 00 00 00 
    158      7117.560 DT     07A2 Rx 8  26 00 00 00 00 00 00 00 
    159      7117.795 DT     07A2 Rx 8  27 00 00 00 00 00 00 00 
    160      7117.927 DT     07A2 Rx 8  28 00 00 00 00 00 00 00 
    161      7118.047 DT     07A2 Rx 8  29 00 00 00 00 00 00 00 
    162      7118.165 DT     07A2 Rx 8  2A 00 00 00 00 00 00 00 
    163      7118.281 DT     07A2 Rx 8  2B 00 00 00 00 00 00 00 
    164      7118.398 DT     07A2 Rx 8  2C 00 00 00 00 00 00 00 
    165      7118.515 DT     07A2 Rx 8  2D 00 00 00 00 00 00 00 
    166      7118.631 DT     07A2 Rx 8  2E 00 00 00 00 00 00 00 
    167      7118.769 DT     07A2 Rx 8  2F 00 00 00 00 00 00 00 
    168      7118.888 DT     07A2 Rx 8  20 00 00 00 00 00 00 00 
    169      7119.005 DT     07A2 Rx 8  21 00 00 00 00 00 00 00 
    170      7119.122 DT     07A2 Rx 8  22 00 00 00 00 00 00 00 
    171      7119.238 DT     07A2 Rx 8  23 00 00 00 00 00 00 00 
    172      7119.354 DT     07A2 Rx 8  24 00 00 00 00 00 00 00 
    173      7119.470 DT     07A2 Rx 8  25 00 00 00 00 00 00 00 
    174      7119.586 DT     07A2 Rx 8  26 00 00 00 00 00 00 00 
    175      7119.703 DT     07A2 Rx 8  27 00 00 00 00 00 00 00 
    176      7119.820 DT     07A2 Rx 8  28 00 00 00 00 00 00 00 
    177      7119.935 DT     07A2 Rx 8  29 00 00 00 00 00 00 00 
    178      7120.051 DT     07A2 Rx 8  2A 00 00 00 00 00 00 00 
    179      7120.166 DT     07A2 Rx 8  2B 00 00 00 00 00 00 00 
    180      7120.283 DT     07A2 Rx 8  2C 00 00 00 00 00 00 00 
    181      7120.398 DT     07A2 Rx 8  2D 00 00 00 00 00 00 00 
    182      7120.512 DT     07A2 Rx 8  2E 00 00 00 00 00 00 00 
    183      7120.628 DT     07A2 Rx 8  2F 00 00 00 00 00 00 00 
    184      7120.812 DT     07A2 Rx 8  20 00 00 00 00 00 00 00 
    185      7121.008 DT     07A2 Rx 8  21 00 00 00 00 00 00 00 
    186      7121.191 DT     07A2 Rx 8  22 00 00 00 00 00 00 00 
    187      7121.372 DT     07A2 Rx 8  23 00 00 00 00 00 00 00 
    188      7121.553 DT     07A2 Rx 8  24 00 00 00 00 00 00 00 
    189      7121.757 DT     07A2 Rx 8  25 00 00 00 00 00 00 00 
    190      7121.899 DT     07A2 Rx 8  26 00 00 00 00 00 00 00 
    191      7122.021 DT     07A2 Rx 8  27 00 00 00 00 00 00 00 
    192      7122.140 DT     07A2 Rx 8  28 00 00 00 00 00 00 00 
    193      7122.259 DT     07A2 Rx 8  29 00 00 00 00 00 00 00 
    194      7122.377 DT     07A2 Rx 8  2A 00 00 00 00 00 00 00 
    195      7122.494 DT     07A2 Rx 8  2B 00 00 00 00 00 00 00 
    196      7122.611 DT     07A2 Rx 8  2C 00 00 00 00 00 00 00 
    197      7122.777 DT     07A2 Rx 8  2D 00 00 00 00 00 00 00 
    198      7123.018 DT     07A2 Rx 8  2E 00 00 00 00 00 00 00 
    199      7123.295 DT     07A2 Rx 8  2F 00 00 00 00 00 00 00 
    200      7123.605 DT     07A2 Rx 8  20 00 00 00 00 00 00 00 
    201      7123.846 DT     07A2 Rx 8  21 00 00 00 00 00 00 00 
    202      7124.126 DT     07A2 Rx 8  22 00 00 00 00 00 00 00 
    203      7124.456 DT     07A2 Rx 8  23 00 00 00 00 00 00 00 
    204      7124.732 DT     07A2 Rx 8  24 00 00 00 00 00 00 00 
    205      7125.006 DT     07A2 Rx 8  25 00 00 00 00 00 00 00 
    206      7125.244 DT     07A2 Rx 8  26 00 00 00 00 00 00 00 
    207      7125.468 DT     07A2 Rx 8  27 00 00 00 00 00 00 00 
    208      7125.688 DT     07A2 Rx 8  28 00 00 00 00 00 00 00 
    209      7126.009 DT     07A2 Rx 8  29 00 00 00 00 00 00 00 
    210      7126.254 DT     07A2 Rx 8  2A 00 00 00 00 00 00 00 
    211      7126.485 DT     07A2 Rx 8  2B 00 00 00 00 00 00 00 
    212      7126.713 DT     07A2 Rx 8  2C 00 00 00 00 00 00 00 
    213      7126.996 DT     07A2 Rx 8  2D 00 00 00 00 00 00 00 
    214      7127.212 DT     07A2 Rx 8  2E 00 00 00 00 00 00 00 
    215      7127.436 DT     07A2 Rx 8  2F 00 00 00 00 00 00 00 
    216      7127.640 DT     07A2 Rx 8  20 00 00 00 00 00 00 00 
    217      7127.853 DT     07A2 Rx 8  21 00 00 00 00 00 00 00 
    218      7128.103 DT     07A2 Rx 8  22 00 00 00 00 00 00 00 
    219      7128.245 DT     07A2 Rx 8  23 00 00 00 00 00 00 00 
    220      7128.367 DT     07A2 Rx 8  24 00 00 00 00 00 00 00 
    221      7128.486 DT     07A2 Rx 8  25 24 2B F9 20 4C 38 F9 
    222      7128.604 DT     07A2 Rx 8  26 20 4C 38 F9 20 4C 38 
    223      7128.722 DT     07A2 Rx 8  27 F9 20 4C 38 F9 20 4C 
    224      7129.136 DT     07A2 Rx 8  28 38 F9 20 4C 38 F9 20 
    225      7129.442 DT     07A2 Rx 8  29 4C 38 F9 20 4C 38 F9 
    226      7129.727 DT     07A2 Rx 8  2A 20 4C 38 F9 20 4C 38 
    227      7129.993 DT     07A2 Rx 8  2B F9 20 4C 38 F9 20 4C 
    228      7130.186 DT     07A2 Rx 8  2C 38 F9 20 4C 38 F9 20 
    229      7130.321 DT     07A2 Rx 8  2D 4C 38 F9 20 4C 38 F9 
    230      7130.483 DT     07A2 Rx 8  2E 20 2C 3C F9 20 2C 3C 
    231      7130.600 DT     07A2 Rx 8  2F F9 20 2C 3C F9 20 2C 
    232      7130.717 DT     07A2 Rx 8  20 3C F9 20 2C 3C F9 20 
    233      7130.870 DT     07A2 Rx 8  21 2C 3C F9 20 2C 3C F9 
    234      7131.097 DT     07A2 Rx 8  22 20 2C 3C F9 20 2C 3C 
    235      7131.224 DT     07A2 Rx 8  23 F9 20 2C 3C F9 20 2C 
    236      7131.343 DT     07A2 Rx 8  24 3C F9 20 2C 3C F9 20 
    237      7131.461 DT     07A2 Rx 8  25 2C 3C F9 20 2C 3C F9 
    238      7131.578 DT     07A2 Rx 8  26 20 2C 3C F9 20 2C 3C 
    239      7131.695 DT     07A2 Rx 8  27 F9 20 2C 3C F9 20 2C 
    240      7131.829 DT     07A2 Rx 8  28 3C F9 20 2C 3C F9 20 
    241      7132.032 DT     07A2 Rx 8  29 2C 3C F9 20 2C 3C F9 
    242      7132.213 DT     07A2 Rx 8  2A 20 2C 3C F9 20 2C 3C 
    243      7132.408 DT     07A2 Rx 8  2B F9 20 2C 3C F9 20 2C 
    244      7132.589 DT     07A2 Rx 8  2C 3C F9 20 2C 3C F9 20 
    245      7132.712 DT     07A2 Rx 8  2D 2C 3C F9 20 2C 3C F9 
    246      7132.852 DT     07A2 Rx 8  2E 20 2C 3C F9 20 2C 3C 
    247      7132.978 DT     07A2 Rx 8  2F F9 20 2C 3C F9 20 2C 
    248      7133.097 DT     07A2 Rx 8  20 3C F9 20 2C 3C F9 20 
    249      7133.215 DT     07A2 Rx 8  21 2C 3C F9 20 2C 3C F9 
    250      7133.333 DT     07A2 Rx 8  22 20 2C 3C F9 20 2C 3C 
    251      7133.450 DT     07A2 Rx 8  23 F9 20 2C 3C F9 20 2C 
    252      7133.566 DT     07A2 Rx 8  24 3C F9 20 2C 3C F9 20 
    253      7133.681 DT     07A2 Rx 8  25 2C 3C F9 20 2C 3C F9 
    254      7133.798 DT     07A2 Rx 8  26 20 2C 3C F9 20 2C 3C 
    255      7133.915 DT     07A2 Rx 8  27 F9 20 2C 3C F9 20 2C 
    256      7134.031 DT     07A2 Rx 8  28 3C F9 20 2C 3C F9 20 
    257      7134.147 DT     07A2 Rx 8  29 2C 3C F9 20 2C 3C F9 
    258      7134.264 DT     07A2 Rx 8  2A 20 2C 3C F9 20 2C 3C 
    259      7134.378 DT     07A2 Rx 8  2B F9 20 2C 3C F9 20 2C 
    260      7134.493 DT     07A2 Rx 8  2C 3C F9 20 2C 3C F9 20 
    261      7134.609 DT     07A2 Rx 8  2D 2C 3C F9 20 2C 3C F9 
    262      7134.724 DT     07A2 Rx 8  2E 20 2C 3C F9 20 2C 3C 
    263      7134.911 DT     07A2 Rx 8  2F F9 20 2C 3C F9 20 2C 
    264      7135.039 DT     07A2 Rx 8  20 3C F9 20 2C 3C F9 20 
    265      7135.157 DT     07A2 Rx 8  21 2C 3C F9 20 2C 3C F9 
    266      7135.275 DT     07A2 Rx 8  22 20 2C 3C F9 20 2C 3C 
    267      7135.393 DT     07A2 Rx 8  23 F9 20 2C 3C F9 20 2C 
    268      7135.516 DT     07A2 Rx 8  24 3C F9 20 2C 3C F9 20 
    269      7135.634 DT     07A2 Rx 8  25 2C 3C F9 20 2C 3C F9 
    270      7135.752 DT     07A2 Rx 8  26 20 2C 3C F9 20 2C 3C 
    271      7135.869 DT     07A2 Rx 8  27 F9 20 2C 3C F9 20 2C 
    272      7136.017 DT     07A2 Rx 8  28 3C F9 20 2C 3C F9 20 
    273      7136.236 DT     07A2 Rx 8  29 2C 3C F9 20 2C 3C F9 
    274      7136.419 DT     07A2 Rx 8  2A 20 2C 3C F9 20 2C 3C 
    275      7136.601 DT     07A2 Rx 8  2B F9 20 2C 3C F9 20 2C 
    276      7136.781 DT     07A2 Rx 8  2C 3C F9 20 2C 3C F9 20 
    277      7136.975 DT     07A2 Rx 8  2D 2C 3C F9 20 2C 3C F9 
    278      7137.132 DT     07A2 Rx 8  2E 20 2C 3C F9 20 2C 3C 
    279      7137.254 DT     07A2 Rx 8  2F F9 20 2C 3C F9 20 2C 
    280      7137.373 DT     07A2 Rx 8  20 3C F9 20 2C 3C F9 20 
    281      7137.492 DT     07A2 Rx 8  21 2C 3C F9 20 2C 3C F9 
    282      7137.612 DT     07A2 Rx 8  22 20 2C 3C F9 20 2C 3C 
    283      7137.729 DT     07A2 Rx 8  23 F9 20 2C 3C F9 20 2C 
    284      7137.847 DT     07A2 Rx 8  24 3C F9 20 2C 3C F9 20 
    285      7137.993 DT     07A2 Rx 8  25 2C 3C F9 20 2C 3C F9 
    286      7138.328 DT     07A2 Rx 8  26 20 2C 3C F9 20 2C 3C 
    287      7138.593 DT     07A2 Rx 8  27 F9 20 2C 3C F9 20 2C 
    288      7138.852 DT     07A2 Rx 8  28 3C F9 20 2C 3C F9 20 
    289      7138.944 DT     07A2 Rx 8  29 2C 3C F9 20 2C 3C F9 
    290      7139.114 DT     07A2 Rx 8  2A 20 2C 3C F9 20 2C 3C 
    291      7139.224 DT     07A2 Rx 8  2B F9 20 2C 3C F9 20 2C 
    292      7139.321 DT     07A2 Rx 8  2C 3C F9 20 2C 3C F9 20 
    293      7139.414 DT     07A2 Rx 8  2D 2C 3C F9 20 2C 3C F9 
    294      7139.504 DT     07A2 Rx 8  2E 20 2C 3C F9 20 2C 3C 
    295      7139.596 DT     07A2 Rx 8  2F F9 20 2C 3C F9 20 2C 
    296      7139.699 DT     07A2 Rx 8  20 3C F9 20 2C 3C F9 20 
    297      7139.790 DT     07A2 Rx 8  21 2C 3C F9 20 2C 3C F9 
    298      7139.881 DT     07A2 Rx 8  22 20 2C 3C F9 20 2C 3C 
    299      7139.972 DT     07A2 Rx 8  23 F9 20 2C 3C F9 20 2C 
    300      7140.066 DT     07A2 Rx 8  24 3C F9 20 2C 3C F9 20 
    301      7140.155 DT     07A2 Rx 8  25 2C 3C F9 20 2C 3C F9 
    302      7140.246 DT     07A2 Rx 8  26 20 2C 3C F9 20 2C 3C 
    303      7140.335 DT     07A2 Rx 8  27 F9 20 2C 3C F9 20 2C 
    304      7140.427 DT     07A2 Rx 8  28 3C F9 20 2C 3C F9 20 
    305      7140.517 DT     07A2 Rx 8  29 2C 3C F9 20 2C 3C F9 
    306      7140.605 DT     07A2 Rx 8  2A 20 2C 3C F9 20 2C 3C 
    307      7140.693 DT     07A2 Rx 8  2B F9 20 2C 3C F9 20 2C 
    308      7140.783 DT     07A2 Rx 8  2C 3C F9 20 2C 3C F9 20 
    309      7140.872 DT     07A2 Rx 8  2D 2C 3C F9 20 2C 3C F9 
    310      7140.962 DT     07A2 Rx 8  2E 20 2C 3C F9 20 2C 3C 
    311      7141.130 DT     07A2 Rx 8  2F F9 20 2C 3C F9 20 2C 
    312      7141.227 DT     07A2 Rx 8  20 3C F9 20 FC 1C C8 B7 
    313      7141.318 DT     07A2 Rx 8  21 04 14 1F 34 20 20 C0 
    314      7141.409 DT     07A2 Rx 8  22 07 FC 1C C8 B7 22 20 
    315      7141.498 DT     07A2 Rx 8  23 80 0F F9 20 90 AB 04 
    316      7141.588 DT     07A2 Rx 8  24 14 1F 34 20 20 C0 07 
    317      7165.100 DT     07AA Rx 8  02 76 01 55 55 55 55 55 
    318      7166.192 DT     07A2 Rx 8  18 02 36 02 F5 1C 98 B2 
    319      7167.230 DT     07AA Rx 8  30 00 00 55 55 55 55 55 
    320      7167.521 DT     07A2 Rx 8  21 AA 22 90 10 FC 1C 88 
    321      7167.652 DT     07A2 Rx 8  22 B2 AA 22 10 10 FC 1C 
    322      7167.776 DT     07A2 Rx 8  23 88 B2 AA 22 0A 14 FC 
    323      7167.897 DT     07A2 Rx 8  24 1C 88 B2 AA 22 4A 14 
    324      7168.020 DT     07A2 Rx 8  25 FC 1C 88 B2 AA 22 8A 
    325      7168.143 DT     07A2 Rx 8  26 14 FC 1C 88 B2 FC 1C 
    326      7168.253 DT     07A2 Rx 8  27 08 BF 6A 22 80 10 FC 
    327      7168.362 DT     07A2 Rx 8  28 1C 88 B2 6A 22 C0 10 
    328      7168.470 DT     07A2 Rx 8  29 FC 1C 88 B2 FC 1C C8 
    329      7168.599 DT     07A2 Rx 8  2A B7 FC 1C C8 B2 42 24 
    330      7168.713 DT     07A2 Rx 8  2B 1C 31 FC 1C 48 B2 FC 
    331      7168.961 DT     07A2 Rx 8  2C 1C 08 B2 FC 1C C8 B1 
    332      7169.107 DT     07A2 Rx 8  2D FC 1C 88 B1 FC 1C 48 
    333      7169.313 DT     07A2 Rx 8  2E B1 FC 1C 08 B1 FC 1C 
    334      7169.627 DT     07A2 Rx 8  2F C8 B0 FC 1C 88 B0 FC 
    335      7169.906 DT     07A2 Rx 8  20 1C 48 B0 FC 1C 08 B0 
    336      7170.073 DT     07A2 Rx 8  21 FC 1C 08 B3 FC 1C 88 
    337      7170.195 DT     07A2 Rx 8  22 BE FC 1C C8 BE FC 1C 
    338      7170.352 DT     07A2 Rx 8  23 88 B6 FC 1C C8 B6 FC 
    339      7170.449 DT     07A2 Rx 8  24 1C 48 B7 FC 1C 88 B7 
    340      7170.542 DT     07A2 Rx 8  25 AA 22 50 10 FC 1C 88 
    341      7170.633 DT     07A2 Rx 8  26 B2 0A 23 00 07 00 16 
    342      7170.724 DT     07A2 Rx 8  27 00 70 FD 20 34 63 40 
    343      7170.812 DT     07A2 Rx 8  28 20 40 00 00 1E 00 70 
    344      7170.901 DT     07A2 Rx 8  29 FD 20 34 63 AA 20 D0 
    345      7170.990 DT     07A2 Rx 8  2A 00 41 28 00 04 53 20 
    346      7171.079 DT     07A2 Rx 8  2B C0 01 0A 21 80 0F FD 
    347      7171.184 DT     07A2 Rx 8  2C 20 B0 60 F0 21 02 00 
    348      7171.369 DT     07A2 Rx 8  2D 0A 20 C0 00 22 20 80 
    349      7171.477 DT     07A2 Rx 8  2E 00 00 16 00 70 FD 20 
    350      7171.569 DT     07A2 Rx 8  2F 34 63 42 20 40 00 00 
    351      7171.700 DT     07A2 Rx 8  20 1E 00 70 FD 20 34 63 
    352      7171.806 DT     07A2 Rx 8  21 04 14 0A 34 AB 22 50 
    353      7171.900 DT     07A2 Rx 8  22 10 04 14 1E 34 04 14 
    354      7171.991 DT     07A2 Rx 8  23 1D 34 04 14 1B 34 04 
    355      7172.083 DT     07A2 Rx 8  24 14 1A 34 04 14 3B 34 
    356      7172.212 DT     07A2 Rx 8  25 04 14 3A 34 04 14 0C 
    357      7172.380 DT     07A2 Rx 8  26 34 04 14 00 34 04 14 
    358      7172.477 DT     07A2 Rx 8  27 01 34 04 14 02 34 04 
    359      7172.569 DT     07A2 Rx 8  28 14 03 34 04 14 04 34 
    360      7172.658 DT     07A2 Rx 8  29 04 14 05 34 04 14 06 
    361      7172.747 DT     07A2 Rx 8  2A 34 04 14 07 34 04 14 
    362      7172.859 DT     07A2 Rx 8  2B 08 34 04 14 09 34 40 
    363      7172.994 DT     07A2 Rx 8  2C 24 1C 31 04 14 0B 34 
    364      7173.090 DT     07A2 Rx 8  2D 04 14 1F 34 04 14 0A 
    365      7173.185 DT     07A2 Rx 8  2E 34 6B 22 C0 10 04 14 
    366      7173.276 DT     07A2 Rx 8  2F 0A 34 6B 22 80 10 04 
    367      7173.366 DT     07A2 Rx 8  20 14 0A 34 0A 24 80 72 
    368      7173.455 DT     07A2 Rx 8  21 04 14 0A 34 AB 22 8A 
    369      7173.544 DT     07A2 Rx 8  22 14 04 14 0A 34 AB 22 
    370      7173.632 DT     07A2 Rx 8  23 4A 14 04 14 0A 34 AB 
    371      7173.720 DT     07A2 Rx 8  24 22 0A 14 04 14 0A 34 
    372      7173.808 DT     07A2 Rx 8  25 AB 22 10 10 04 14 0A 
    373      7173.897 DT     07A2 Rx 8  26 34 AB 22 90 10 F5 14 
    374      7173.984 DT     07A2 Rx 8  27 0A B6 6F 24 3F 00 6F 
    375      7174.073 DT     07A2 Rx 8  28 27 3F 00 AA 20 C1 00 
    376      7174.160 DT     07A2 Rx 8  29 51 20 00 80 74 01 02 
    377      7174.249 DT     07A2 Rx 8  2A 00 FC 1C 08 B3 FC 1C 
    378      7174.338 DT     07A2 Rx 8  2B 88 BE FC 1C C8 BE FC 
    379      7174.426 DT     07A2 Rx 8  2C 1C 88 B6 FC 1C C8 B6 
    380      7174.514 DT     07A2 Rx 8  2D FC 1C 48 B7 FC 1C 88 
    381      7174.655 DT     07A2 Rx 8  2E B7 AA 22 0C 10 FC 1C 
    382      7174.775 DT     07A2 Rx 8  2F 88 B2 AA 22 4C 10 FC 
    383      7174.871 DT     07A2 Rx 8  20 1C 88 B2 AA 22 8C 10 
    384      7174.963 DT     07A2 Rx 8  21 FC 1C 88 B2 AA 22 CC 
    385      7175.054 DT     07A2 Rx 8  22 10 FC 1C 88 B2 AA 22 
    386      7175.145 DT     07A2 Rx 8  23 0C 11 FC 1C 88 B2 AA 
    387      7175.236 DT     07A2 Rx 8  24 22 4C 11 FC 1C 88 B2 
    388      7175.327 DT     07A2 Rx 8  25 AA 22 D6 17 FC 1C 88 
    389      7175.417 DT     07A2 Rx 8  26 B2 AA 22 16 10 FC 1C 
    390      7175.507 DT     07A2 Rx 8  27 88 B2 AA 22 56 10 FC 
    391      7175.605 DT     07A2 Rx 8  28 1C 88 B2 AA 22 96 10 
    392      7175.695 DT     07A2 Rx 8  29 FC 1C 88 B2 AA 22 D6 
    393      7175.783 DT     07A2 Rx 8  2A 10 FC 1C 88 B2 AA 22 
    394      7175.872 DT     07A2 Rx 8  2B 16 16 FC 1C 88 B2 AA 
    395      7175.961 DT     07A2 Rx 8  2C 22 96 17 FC 1C 88 B2 
    396      7176.050 DT     07A2 Rx 8  2D 42 24 1C 31 00 16 00 
    397      7176.139 DT     07A2 Rx 8  2E 70 FD 20 34 63 40 20 
    398      7176.227 DT     07A2 Rx 8  2F 40 00 00 1E 00 70 FD 
    399      7176.316 DT     07A2 Rx 8  20 20 34 63 AA 20 90 02 
    400      7176.403 DT     07A2 Rx 8  21 0A 21 80 0F FD 20 B0 
    401      7176.491 DT     07A2 Rx 8  22 60 F0 21 02 00 AA 23 
    402      7176.589 DT     07A2 Rx 8  23 48 00 0C 23 00 80 0C 
    403      7176.697 DT     07A2 Rx 8  24 00 22 00 07 23 C3 00 
    404      7176.789 DT     07A2 Rx 8  25 AB 23 48 00 6F 26 3F 
    405      7176.877 DT     07A2 Rx 8  26 00 0A 20 00 07 22 20 
    406      7176.965 DT     07A2 Rx 8  27 80 00 6F 27 3F 00 00 
    407      7177.053 DT     07A2 Rx 8  28 16 00 70 FD 20 34 63 
    408      7177.141 DT     07A2 Rx 8  29 42 20 40 00 00 1E 00 
    409      7177.229 DT     07A2 Rx 8  2A 70 FD 20 34 63 40 24 
    410      7177.317 DT     07A2 Rx 8  2B 1C 31 04 14 0A 34 AB 
    411      7177.405 DT     07A2 Rx 8  2C 22 96 17 04 14 0A 34 
    412      7177.493 DT     07A2 Rx 8  2D AB 22 16 16 04 14 0A 
    413      7177.589 DT     07A2 Rx 8  2E 34 AB 22 D6 10 04 14 
    414      7177.692 DT     07A2 Rx 8  2F 0A 34 AB 22 96 10 04 
    415      7177.783 DT     07A2 Rx 8  20 14 0A 34 AB 22 56 10 
    416      7177.873 DT     07A2 Rx 8  21 04 14 0A 34 AB 22 16 
    417      7177.962 DT     07A2 Rx 8  22 10 04 14 0A 34 AB 22 
    418      7178.051 DT     07A2 Rx 8  23 D6 17 04 14 0A 34 AB 
    419      7178.150 DT     07A2 Rx 8  24 22 4C 11 04 14 0A 34 
    420      7178.238 DT     07A2 Rx 8  25 AB 22 0C 11 04 14 0A 
    421      7178.328 DT     07A2 Rx 8  26 34 AB 22 CC 10 04 14 
    422      7178.416 DT     07A2 Rx 8  27 0A 34 AB 22 8C 10 04 
    423      7178.504 DT     07A2 Rx 8  28 14 0A 34 AB 22 4C 10 
    424      7178.592 DT     07A2 Rx 8  29 04 14 0A 34 AB 22 0C 
    425      7178.680 DT     07A2 Rx 8  2A 10 04 14 1E 34 04 14 
    426      7178.768 DT     07A2 Rx 8  2B 1D 34 04 14 1B 34 04 
    427      7178.855 DT     07A2 Rx 8  2C 14 1A 34 04 14 3B 34 
    428      7178.943 DT     07A2 Rx 8  2D 04 14 3A 34 04 14 0C 
    429      7179.031 DT     07A2 Rx 8  2E 34 6F 24 3F 00 6F 27 
    430      7179.145 DT     07A2 Rx 8  2F 3F 00 FC 1C 88 BE FC 
    431      7179.247 DT     07A2 Rx 8  20 1C C8 BE AA 22 0A 14 
    432      7179.339 DT     07A2 Rx 8  21 FC 1C 88 B2 AA 22 4A 
    433      7179.429 DT     07A2 Rx 8  22 14 FC 1C 88 B2 AA 22 
    434      7179.520 DT     07A2 Rx 8  23 8A 14 FC 1C 88 B2 FC 
    435      7179.609 DT     07A2 Rx 8  24 1C 08 BF 6A 22 80 10 
    436      7179.698 DT     07A2 Rx 8  25 FC 1C 88 B2 6A 22 C0 
    437      7179.788 DT     07A2 Rx 8  26 10 FC 1C 88 B2 00 16 
    438      7179.877 DT     07A2 Rx 8  27 00 70 FD 20 34 63 40 
    439      7179.965 DT     07A2 Rx 8  28 20 40 00 00 1E 00 70 
    440      7180.055 DT     07A2 Rx 8  29 FD 20 34 63 AA 20 90 
    441      7180.189 DT     07A2 Rx 8  2A 02 0A 21 80 0F FD 20 
    442      7180.285 DT     07A2 Rx 8  2B 30 5E F0 21 02 00 AA 
    443      7180.377 DT     07A2 Rx 8  2C 23 48 00 0C 23 00 80 
    444      7180.469 DT     07A2 Rx 8  2D 0C 00 22 00 07 23 C3 
    445      7180.558 DT     07A2 Rx 8  2E 00 AB 23 48 00 22 20 
    446      7180.648 DT     07A2 Rx 8  2F 80 00 00 16 00 70 FD 
    447      7180.737 DT     07A2 Rx 8  20 20 34 63 42 20 40 00 
    448      7180.827 DT     07A2 Rx 8  21 00 1E 00 70 FD 20 34 
    449      7180.915 DT     07A2 Rx 8  22 63 04 14 0A 34 6B 22 
    450      7181.003 DT     07A2 Rx 8  23 C0 10 04 14 0A 34 6B 
    451      7181.103 DT     07A2 Rx 8  24 22 80 10 04 14 0A 34 
    452      7181.211 DT     07A2 Rx 8  25 0A 24 80 72 04 14 0A 
    453      7181.304 DT     07A2 Rx 8  26 34 AB 22 8A 14 04 14 
    454      7181.395 DT     07A2 Rx 8  27 0A 34 AB 22 4A 14 04 
    455      7181.484 DT     07A2 Rx 8  28 14 0A 34 AB 22 0A 14 
    456      7181.573 DT     07A2 Rx 8  29 04 14 3B 34 04 14 3A 
    457      7181.665 DT     07A2 Rx 8  2A 34 6F 24 3F 00 4A 26 
    458      7181.754 DT     07A2 Rx 8  2B 00 70 FC 1C 88 B6 FC 
    459      7181.842 DT     07A2 Rx 8  2C 1C C8 B6 FC 1C C8 B7 
    460      7181.931 DT     07A2 Rx 8  2D FC 1C 48 B3 FC 1C 88 
    461      7182.020 DT     07A2 Rx 8  2E B3 FC 1C C8 B3 FC 1C 
    462      7182.326 DT     07A2 Rx 8  2F 08 B4 FC 1C 48 B4 FC 
    463      7182.529 DT     07A2 Rx 8  20 1C 88 B4 FC 1C C8 B4 
    464      7182.731 DT     07A2 Rx 8  21 FC 1C 08 B5 FC 1C 48 
    465      7182.839 DT     07A2 Rx 8  22 B5 FC 1C 88 B5 FC 1C 
    466      7182.933 DT     07A2 Rx 8  23 C8 B5 FC 1C 08 B6 FC 
    467      7183.024 DT     07A2 Rx 8  24 1C 48 B6 FC 1C 88 BE 
    468      7183.115 DT     07A2 Rx 8  25 FC 1C C8 BE AA 22 0C 
    469      7183.205 DT     07A2 Rx 8  26 10 FC 1C 88 B2 AA 22 
    470      7183.295 DT     07A2 Rx 8  27 4C 10 FC 1C 88 B2 AA 
    471      7183.384 DT     07A2 Rx 8  28 22 8C 10 FC 1C 88 B2 
    472      7183.473 DT     07A2 Rx 8  29 AA 22 CC 10 FC 1C 88 
    473      7183.562 DT     07A2 Rx 8  2A B2 AA 22 0C 11 FC 1C 
    474      7183.698 DT     07A2 Rx 8  2B 88 B2 AA 22 4C 11 FC 
    475      7183.794 DT     07A2 Rx 8  2C 1C 88 B2 AA 22 D6 17 
    476      7183.885 DT     07A2 Rx 8  2D FC 1C 88 B2 AA 22 16 
    477      7183.974 DT     07A2 Rx 8  2E 10 FC 1C 88 B2 AA 22 
    478      7184.064 DT     07A2 Rx 8  2F 56 10 FC 1C 88 B2 AA 
    479      7184.153 DT     07A2 Rx 8  20 22 96 10 FC 1C 88 B2 
    480      7184.241 DT     07A2 Rx 8  21 AA 22 D6 10 FC 1C 88 
    481      7184.329 DT     07A2 Rx 8  22 B2 AA 22 16 16 FC 1C 
    482      7184.418 DT     07A2 Rx 8  23 88 B2 AA 22 96 17 FC 
    483      7184.507 DT     07A2 Rx 8  24 1C 88 B2 0A 21 80 0F 
    484      7184.669 DT     07A2 Rx 8  25 F9 20 34 37 FC 1C 48 
    485      7184.769 DT     07A2 Rx 8  26 B0 00 16 00 70 FD 20 
    486      7184.864 DT     07A2 Rx 8  27 EC 5D CD 00 00 00 04 
    487      7184.956 DT     07A2 Rx 8  28 14 0A 34 AB 22 96 17 
    488      7185.045 DT     07A2 Rx 8  29 04 14 0A 34 AB 22 16 
    489      7185.150 DT     07A2 Rx 8  2A 16 04 14 0A 34 AB 22 
    490      7185.250 DT     07A2 Rx 8  2B D6 10 04 14 0A 34 AB 
    491      7185.343 DT     07A2 Rx 8  2C 22 96 10 04 14 0A 34 
    492      7185.433 DT     07A2 Rx 8  2D AB 22 56 10 04 14 0A 
    493      7185.524 DT     07A2 Rx 8  2E 34 AB 22 16 10 04 14 
    494      7185.613 DT     07A2 Rx 8  2F 0A 34 AB 22 D6 17 04 
    495      7185.703 DT     07A2 Rx 8  20 14 0A 34 AB 22 4C 11 
    496      7185.793 DT     07A2 Rx 8  21 04 14 0A 34 AB 22 0C 
    497      7185.881 DT     07A2 Rx 8  22 11 04 14 0A 34 AB 22 
    498      7185.968 DT     07A2 Rx 8  23 CC 10 04 14 0A 34 AB 
    499      7186.057 DT     07A2 Rx 8  24 22 8C 10 04 14 0A 34 
    500      7186.215 DT     07A2 Rx 8  25 AB 22 4C 10 04 14 0A 
    501      7186.460 DT     07A2 Rx 8  26 34 AB 22 0C 10 04 14 
    502      7186.823 DT     07A2 Rx 8  27 3B 34 04 14 3A 34 04 
    503      7187.224 DT     07A2 Rx 8  28 14 19 34 04 14 18 34 
    504      7187.460 DT     07A2 Rx 8  29 04 14 17 34 04 14 16 
    505      7187.673 DT     07A2 Rx 8  2A 34 04 14 15 34 04 14 
    506      7187.934 DT     07A2 Rx 8  2B 14 34 04 14 13 34 04 
    507      7188.123 DT     07A2 Rx 8  2C 14 12 34 04 14 11 34 
    508      7188.367 DT     07A2 Rx 8  2D 04 14 10 34 04 14 0F 
    509      7188.728 DT     07A2 Rx 8  2E 34 04 14 0E 34 04 14 
    510      7188.983 DT     07A2 Rx 8  2F 0D 34 04 14 1F 34 04 
    511      7189.203 DT     07A2 Rx 8  20 14 1B 34 04 14 1A 34 
    512      7189.338 DT     07A2 Rx 8  21 20 20 C0 07 6F 27 3F 
    513      7189.547 DT     07A2 Rx 8  22 00 4A 20 00 00 00 1E 
    514      7189.738 DT     07A2 Rx 8  23 00 70 FD 20 34 63 1D 
    515      7189.923 DT     07A2 Rx 8  24 00 00 00 00 16 01 70 
    516      7190.134 DT     07A2 Rx 8  25 FD 20 F0 5D FC 1C 48 
    517      7190.369 DT     07A2 Rx 8  26 B0 00 18 00 07 22 20 
    518      7190.561 DT     07A2 Rx 8  27 80 0F FD 20 F8 5D 00 
    519      7190.747 DT     07A2 Rx 8  28 16 01 70 FD 20 EC 5D 
    520      7190.927 DT     07A2 Rx 8  29 00 11 1C 00 04 14 00 
    521      7191.117 DT     07A2 Rx 8  2A 34 00 1E 00 70 FD 20 
    522      7191.267 DT     07A2 Rx 8  2B F0 5D 04 14 00 34 20 
    523      7191.388 DT     07A2 Rx 8  2C 20 00 00 6F 26 3F 00 
    524      7191.573 DT     07A2 Rx 8  2D 0A 27 80 3F FD 20 F4 
    525      7191.766 DT     07A2 Rx 8  2E 5D 04 14 01 34 04 14 
    526      7191.952 DT     07A2 Rx 8  2F 00 34 20 20 40 00 F5 
    527      7192.278 DT     07A2 Rx 8  20 1C 98 B2 AA 22 90 10 
    528      7192.500 DT     07A2 Rx 8  21 FC 1C 88 B2 AA 22 10 
    529      7192.688 DT     07A2 Rx 8  22 10 FC 1C 88 B2 AA 22 
    530      7192.867 DT     07A2 Rx 8  23 0A 14 FC 1C 88 B2 AA 
    531      7193.062 DT     07A2 Rx 8  24 22 4A 14 FC 1C 88 B2 
    532      7193.307 DT     07A2 Rx 8  25 AA 22 8A 14 FC 1C 88 
    533      7193.499 DT     07A2 Rx 8  26 B2 FC 1C 08 BF 6A 22 
    534      7193.686 DT     07A2 Rx 8  27 80 10 FC 1C 88 B2 6A 
    535      7193.871 DT     07A2 Rx 8  28 22 C0 10 FC 1C 88 B2 
    536      7194.057 DT     07A2 Rx 8  29 FC 1C C8 B7 FC 1C C8 
    537      7194.259 DT     07A2 Rx 8  2A B2 42 24 1C 31 FC 1C 
    538      7194.443 DT     07A2 Rx 8  2B 48 B2 FC 1C 08 B2 FC 
    539      7194.628 DT     07A2 Rx 8  2C 1C C8 B1 FC 1C 88 B1 
    540      7194.812 DT     07A2 Rx 8  2D FC 1C 48 B1 FC 1C 08 
    541      7194.998 DT     07A2 Rx 8  2E B1 FC 1C C8 B0 FC 1C 
    542      7195.200 DT     07A2 Rx 8  2F 88 B0 FC 1C 48 B0 FC 
    543      7195.590 DT     07A2 Rx 8  20 1C 08 B0 FC 1C 08 B3 
    544      7195.907 DT     07A2 Rx 8  21 FC 1C 88 BE FC 1C C8 
    545      7196.144 DT     07A2 Rx 8  22 BE FC 1C 88 B6 FC 1C 
    546      7196.330 DT     07A2 Rx 8  23 C8 B6 FC 1C 48 B7 FC 
    547      7196.518 DT     07A2 Rx 8  24 1C 88 B7 AA 22 50 10 
    548      7196.703 DT     07A2 Rx 8  25 FC 1C 88 B2 0A 27 00 
    549      7196.894 DT     07A2 Rx 8  26 37 0A 23 00 07 00 16 
    550      7197.074 DT     07A2 Rx 8  27 00 70 FD 20 34 63 40 
    551      7197.334 DT     07A2 Rx 8  28 20 41 00 00 1E 40 70 
    552      7197.517 DT     07A2 Rx 8  29 FD 20 34 63 4C 20 00 
    553      7197.704 DT     07A2 Rx 8  2A 80 0C 00 02 00 0A 24 
    554      7197.882 DT     07A2 Rx 8  2B 80 3F FF 20 FC 90 FC 
    555      7198.068 DT     07A2 Rx 8  2C 1C C8 B7 AA 20 D0 00 
    556      7198.284 DT     07A2 Rx 8  2D 41 28 00 04 0A 21 80 
    557      7198.475 DT     07A2 Rx 8  2E 0F FD 20 30 5E F0 21 
    558      7198.665 DT     07A2 Rx 8  2F 02 00 0A 20 C0 00 22 
    559      7198.849 DT     07A2 Rx 8  20 20 80 00 04 14 1C 34 
    560      7199.027 DT     07A2 Rx 8  21 0A 21 80 0F FD 20 34 
    561      7199.278 DT     07A2 Rx 8  22 63 00 11 00 00 42 20 
    562      7199.467 DT     07A2 Rx 8  23 40 00 4C 20 00 80 18 
    563      7199.661 DT     07A2 Rx 8  24 00 22 00 00 19 00 00 
    564      7199.852 DT     07A2 Rx 8  25 00 16 00 70 FD 20 E8 
    565      7200.034 DT     07A2 Rx 8  26 5D 4C 20 00 80 A4 00 
    566      7200.219 DT     07A2 Rx 8  27 02 00 04 14 0A 34 AB 
    567      7200.365 DT     07A2 Rx 8  28 22 50 10 04 14 1E 34 
    568      7200.555 DT     07A2 Rx 8  29 04 14 1D 34 04 14 1B 
    569      7200.735 DT     07A2 Rx 8  2A 34 04 14 1A 34 04 14 
    570      7200.918 DT     07A2 Rx 8  2B 3B 34 04 14 3A 34 04 
    571      7201.107 DT     07A2 Rx 8  2C 14 0C 34 04 14 00 34 
    572      7201.359 DT     07A2 Rx 8  2D 04 14 01 34 04 14 02 
    573      7201.556 DT     07A2 Rx 8  2E 34 04 14 03 34 04 14 
    574      7201.749 DT     07A2 Rx 8  2F 04 34 04 14 05 34 04 
    575      7201.935 DT     07A2 Rx 8  20 14 06 34 04 14 07 34 
    576      7202.138 DT     07A2 Rx 8  21 04 14 08 34 04 14 09 
    577      7202.327 DT     07A2 Rx 8  22 34 40 24 1C 31 04 14 
    578      7202.522 DT     07A2 Rx 8  23 0B 34 04 14 1F 34 04 
    579      7202.712 DT     07A2 Rx 8  24 14 0A 34 6B 22 C0 10 
    580      7202.898 DT     07A2 Rx 8  25 04 14 0A 34 6B 22 80 
    581      7203.078 DT     07A2 Rx 8  26 10 04 14 0A 34 0A 24 
    582      7203.254 DT     07A2 Rx 8  27 80 72 04 14 0A 34 AB 
    583      7203.441 DT     07A2 Rx 8  28 22 8A 14 04 14 0A 34 
    584      7203.623 DT     07A2 Rx 8  29 AB 22 4A 14 04 14 0A 
    585      7203.765 DT     07A2 Rx 8  2A 34 AB 22 0A 14 04 14 
    586      7203.962 DT     07A2 Rx 8  2B 0A 34 AB 22 10 10 04 
    587      7204.200 DT     07A2 Rx 8  2C 14 0A 34 AB 22 90 10 
    588      7204.544 DT     07A2 Rx 8  2D F5 14 0A B6 6F 24 3F 
    589      7204.836 DT     07A2 Rx 8  2E 00 4A 20 00 00 00 1E 
    590      7205.068 DT     07A2 Rx 8  2F 00 70 FD 20 E8 5D 00 
    591      7205.324 DT     07A2 Rx 8  20 16 00 70 FD 20 EC 5D 
    592      7205.507 DT     07A2 Rx 8  21 4C 20 00 80 74 01 01 
    593      7205.686 DT     07A2 Rx 8  22 00 FC 1C 48 B3 FC 1C 
    594      7205.871 DT     07A2 Rx 8  23 88 B3 FC 1C C8 B3 FC 
    595      7206.001 DT     07A2 Rx 8  24 1C 08 B4 FC 1C 48 B4 
    596      7206.150 DT     07A2 Rx 8  25 FC 1C 88 B4 FC 1C C8 
    597      7206.377 DT     07A2 Rx 8  26 B4 FC 1C 08 B5 FC 1C 
    598      7206.485 DT     07A2 Rx 8  27 48 B5 FC 1C 88 B5 FC 
    599      7206.577 DT     07A2 Rx 8  28 1C C8 B5 FC 1C 08 B6 
    600      7206.668 DT     07A2 Rx 8  29 FC 1C 48 B6 FC 1C 88 
    601      7206.757 DT     07A2 Rx 8  2A BE FC 1C C8 BE AA 22 
    602      7206.847 DT     07A2 Rx 8  2B 0C 10 FC 1C 88 B2 AA 
    603      7206.936 DT     07A2 Rx 8  2C 22 4C 10 FC 1C 88 B2 
    604      7207.025 DT     07A2 Rx 8  2D AA 22 8C 10 FC 1C 88 
    605      7207.120 DT     07A2 Rx 8  2E B2 AA 22 CC 10 FC 1C 
    606      7207.213 DT     07A2 Rx 8  2F 88 B2 AA 22 0C 11 FC 
    607      7207.303 DT     07A2 Rx 8  20 1C 88 B2 AA 22 4C 11 
    608      7207.390 DT     07A2 Rx 8  21 FC 1C 88 B2 AA 22 D6 
    609      7207.479 DT     07A2 Rx 8  22 17 FC 1C 88 B2 AA 22 
    610      7207.565 DT     07A2 Rx 8  23 16 10 FC 1C 88 B2 AA 
    611      7207.653 DT     07A2 Rx 8  24 22 56 10 FC 1C 88 B2 
    612      7236.719 DT     07AA Rx 8  02 76 02 55 55 55 55 55 
    613      7237.791 DT     07A2 Rx 8  18 02 36 03 AA 22 96 10 
    614      7238.763 DT     07AA Rx 8  30 00 00 55 55 55 55 55 
    615      7239.086 DT     07A2 Rx 8  21 FC 1C 88 B2 AA 22 D6 
    616      7239.188 DT     07A2 Rx 8  22 10 FC 1C 88 B2 AA 22 
    617      7239.282 DT     07A2 Rx 8  23 16 16 FC 1C 88 B2 AA 
    618      7239.372 DT     07A2 Rx 8  24 22 96 17 FC 1C 88 B2 
    619      7239.461 DT     07A2 Rx 8  25 6A 20 80 02 50 20 40 
    620      7239.551 DT     07A2 Rx 8  26 01 29 20 00 80 0A 21 
    621      7239.643 DT     07A2 Rx 8  27 80 0F F9 20 DC 3A FC 
    622      7239.731 DT     07A2 Rx 8  28 1C 48 B0 25 05 CF FF 
    623      7239.843 DT     07A2 Rx 8  29 6A 20 80 02 4F 20 40 
    624      7239.968 DT     07A2 Rx 8  2A 01 29 20 00 80 04 14 
    625      7240.063 DT     07A2 Rx 8  2B 0A 34 AB 22 96 17 04 
    626      7240.155 DT     07A2 Rx 8  2C 14 0A 34 AB 22 16 16 
    627      7240.246 DT     07A2 Rx 8  2D 04 14 0A 34 AB 22 D6 
    628      7240.338 DT     07A2 Rx 8  2E 10 04 14 0A 34 AB 22 
    629      7240.429 DT     07A2 Rx 8  2F 96 10 04 14 0A 34 AB 
    630      7240.518 DT     07A2 Rx 8  20 22 56 10 04 14 0A 34 
    631      7240.607 DT     07A2 Rx 8  21 AB 22 16 10 04 14 0A 
    632      7240.696 DT     07A2 Rx 8  22 34 AB 22 D6 17 04 14 
    633      7240.785 DT     07A2 Rx 8  23 0A 34 AB 22 4C 11 04 
    634      7240.908 DT     07A2 Rx 8  24 14 0A 34 AB 22 0C 11 
    635      7241.005 DT     07A2 Rx 8  25 04 14 0A 34 AB 22 CC 
    636      7241.098 DT     07A2 Rx 8  26 10 04 14 0A 34 AB 22 
    637      7241.190 DT     07A2 Rx 8  27 8C 10 04 14 0A 34 AB 
    638      7241.281 DT     07A2 Rx 8  28 22 4C 10 04 14 0A 34 
    639      7241.371 DT     07A2 Rx 8  29 AB 22 0C 10 04 14 3B 
    640      7241.461 DT     07A2 Rx 8  2A 34 04 14 3A 34 04 14 
    641      7241.549 DT     07A2 Rx 8  2B 19 34 04 14 18 34 04 
    642      7241.639 DT     07A2 Rx 8  2C 14 17 34 04 14 16 34 
    643      7241.728 DT     07A2 Rx 8  2D 04 14 15 34 04 14 14 
    644      7241.829 DT     07A2 Rx 8  2E 34 04 14 13 34 04 14 
    645      7241.946 DT     07A2 Rx 8  2F 12 34 04 14 11 34 04 
    646      7242.040 DT     07A2 Rx 8  20 14 10 34 04 14 0F 34 
    647      7242.133 DT     07A2 Rx 8  21 04 14 0E 34 04 14 0D 
    648      7242.224 DT     07A2 Rx 8  22 34 04 14 0A 34 AB 22 
    649      7242.314 DT     07A2 Rx 8  23 50 10 04 14 1E 34 04 
    650      7242.404 DT     07A2 Rx 8  24 14 1D 34 04 14 1B 34 
    651      7242.494 DT     07A2 Rx 8  25 04 14 1A 34 04 14 3B 
    652      7242.584 DT     07A2 Rx 8  26 34 04 14 3A 34 04 14 
    653      7242.673 DT     07A2 Rx 8  27 0C 34 04 14 00 34 04 
    654      7242.762 DT     07A2 Rx 8  28 14 01 34 04 14 02 34 
    655      7242.865 DT     07A2 Rx 8  29 04 14 03 34 04 14 04 
    656      7242.962 DT     07A2 Rx 8  2A 34 04 14 05 34 04 14 
    657      7243.055 DT     07A2 Rx 8  2B 06 34 04 14 07 34 04 
    658      7243.146 DT     07A2 Rx 8  2C 14 08 34 04 14 09 34 
    659      7243.235 DT     07A2 Rx 8  2D 40 24 1C 31 04 14 0B 
    660      7243.325 DT     07A2 Rx 8  2E 34 04 14 1F 34 04 14 
    661      7243.415 DT     07A2 Rx 8  2F 0A 34 6B 22 C0 10 04 
    662      7243.504 DT     07A2 Rx 8  20 14 0A 34 6B 22 80 10 
    663      7243.593 DT     07A2 Rx 8  21 04 14 0A 34 0A 24 80 
    664      7243.681 DT     07A2 Rx 8  22 72 04 14 0A 34 AB 22 
    665      7243.769 DT     07A2 Rx 8  23 8A 14 04 14 0A 34 AB 
    666      7243.858 DT     07A2 Rx 8  24 22 4A 14 04 14 0A 34 
    667      7243.947 DT     07A2 Rx 8  25 AB 22 0A 14 04 14 0A 
    668      7244.034 DT     07A2 Rx 8  26 34 AB 22 10 10 04 14 
    669      7244.123 DT     07A2 Rx 8  27 0A 34 AB 22 90 10 F5 
    670      7244.211 DT     07A2 Rx 8  28 14 0A B6 6F 24 3F 00 
    671      7244.299 DT     07A2 Rx 8  29 6F 27 3F 00 AA 20 C1 
    672      7244.386 DT     07A2 Rx 8  2A 00 51 20 00 80 E0 20 
    673      7244.474 DT     07A2 Rx 8  2B 82 0F F9 20 A4 35 FC 
    674      7244.563 DT     07A2 Rx 8  2C 1C 08 B3 FC 1C 88 BE 
    675      7244.651 DT     07A2 Rx 8  2D FC 1C C8 BE FC 1C 88 
    676      7244.739 DT     07A2 Rx 8  2E B6 FC 1C C8 B6 FC 1C 
    677      7244.826 DT     07A2 Rx 8  2F 48 B7 FC 1C 88 B7 AA 
    678      7244.914 DT     07A2 Rx 8  20 22 0C 10 FC 1C 88 B2 
    679      7245.023 DT     07A2 Rx 8  21 AA 22 4C 10 FC 1C 88 
    680      7245.112 DT     07A2 Rx 8  22 B2 AA 22 8C 10 FC 1C 
    681      7245.200 DT     07A2 Rx 8  23 88 B2 AA 22 CC 10 FC 
    682      7245.288 DT     07A2 Rx 8  24 1C 88 B2 AA 22 0C 11 
    683      7245.375 DT     07A2 Rx 8  25 FC 1C 88 B2 AA 22 4C 
    684      7245.462 DT     07A2 Rx 8  26 11 FC 1C 88 B2 AA 22 
    685      7245.551 DT     07A2 Rx 8  27 D6 17 FC 1C 88 B2 AA 
    686      7245.639 DT     07A2 Rx 8  28 22 16 10 FC 1C 88 B2 
    687      7245.725 DT     07A2 Rx 8  29 AA 22 56 10 FC 1C 88 
    688      7245.812 DT     07A2 Rx 8  2A B2 AA 22 96 10 FC 1C 
    689      7245.898 DT     07A2 Rx 8  2B 88 B2 AA 22 D6 10 FC 
    690      7246.034 DT     07A2 Rx 8  2C 1C 88 B2 AA 22 16 16 
    691      7246.136 DT     07A2 Rx 8  2D FC 1C 88 B2 AA 22 96 
    692      7246.228 DT     07A2 Rx 8  2E 17 FC 1C 88 B2 42 24 
    693      7246.317 DT     07A2 Rx 8  2F 1C 31 0A 27 00 37 00 
    694      7246.407 DT     07A2 Rx 8  20 16 03 70 FD 20 34 63 
    695      7246.495 DT     07A2 Rx 8  21 40 23 42 00 00 1E 80 
    696      7246.583 DT     07A2 Rx 8  22 70 FD 20 34 63 4C 23 
    697      7246.671 DT     07A2 Rx 8  23 00 80 0C 00 02 00 0A 
    698      7246.758 DT     07A2 Rx 8  24 24 80 3F FF 20 FC 90 
    699      7246.846 DT     07A2 Rx 8  25 FC 1C C8 B7 AA 20 90 
    700      7246.933 DT     07A2 Rx 8  26 02 AB 20 D0 02 0A 21 
    701      7247.063 DT     07A2 Rx 8  27 80 0F FD 20 30 5E F0 
    702      7247.161 DT     07A2 Rx 8  28 21 02 00 AA 23 48 00 
    703      7247.255 DT     07A2 Rx 8  29 0C 23 00 80 0C 00 22 
    704      7247.348 DT     07A2 Rx 8  2A 00 07 23 C3 00 AB 23 
    705      7247.439 DT     07A2 Rx 8  2B 48 00 AA 23 88 01 FC 
    706      7247.529 DT     07A2 Rx 8  2C 1C C8 B0 6F 26 3F 00 
    707      7247.619 DT     07A2 Rx 8  2D 22 20 80 00 6F 27 3F 
    708      7247.708 DT     07A2 Rx 8  2E 00 04 14 03 34 04 14 
    709      7247.797 DT     07A2 Rx 8  2F 1C 34 0A 21 80 0F FD 
    710      7247.885 DT     07A2 Rx 8  20 20 34 63 00 11 00 00 
    711      7248.011 DT     07A2 Rx 8  21 42 20 40 00 4C 20 00 
    712      7248.198 DT     07A2 Rx 8  22 80 18 00 22 00 00 19 
    713      7248.383 DT     07A2 Rx 8  23 00 00 00 16 00 70 FD 
    714      7248.627 DT     07A2 Rx 8  24 20 E8 5D 4C 20 00 80 
    715      7248.993 DT     07A2 Rx 8  25 90 00 02 00 40 24 1C 
    716      7249.140 DT     07A2 Rx 8  26 31 04 14 0A 34 AB 22 
    717      7249.493 DT     07A2 Rx 8  27 96 17 04 14 0A 34 AB 
    718      7249.779 DT     07A2 Rx 8  28 22 16 16 04 14 0A 34 
    719      7250.157 DT     07A2 Rx 8  29 AB 22 D6 10 04 14 0A 
    720      7250.438 DT     07A2 Rx 8  2A 34 AB 22 96 10 04 14 
    721      7250.605 DT     07A2 Rx 8  2B 0A 34 AB 22 56 10 04 
    722      7250.805 DT     07A2 Rx 8  2C 14 0A 34 AB 22 16 10 
    723      7251.038 DT     07A2 Rx 8  2D 04 14 0A 34 AB 22 D6 
    724      7251.251 DT     07A2 Rx 8  2E 17 04 14 0A 34 AB 22 
    725      7251.440 DT     07A2 Rx 8  2F 4C 11 04 14 0A 34 AB 
    726      7251.603 DT     07A2 Rx 8  20 22 0C 11 04 14 0A 34 
    727      7251.795 DT     07A2 Rx 8  21 AB 22 CC 10 04 14 0A 
    728      7251.979 DT     07A2 Rx 8  22 34 AB 22 8C 10 04 14 
    729      7252.142 DT     07A2 Rx 8  23 0A 34 AB 22 4C 10 04 
    730      7252.333 DT     07A2 Rx 8  24 14 0A 34 AB 22 0C 10 
    731      7252.518 DT     07A2 Rx 8  25 04 14 1E 34 04 14 1D 
    732      7252.703 DT     07A2 Rx 8  26 34 04 14 1B 34 04 14 
    733      7252.881 DT     07A2 Rx 8  27 1A 34 04 14 3B 34 04 
    734      7253.137 DT     07A2 Rx 8  28 14 3A 34 04 14 0C 34 
    735      7253.388 DT     07A2 Rx 8  29 6F 24 3F 00 4A 20 00 
    736      7253.656 DT     07A2 Rx 8  2A 00 00 1E 00 70 FD 20 
    737      7253.853 DT     07A2 Rx 8  2B E8 5D 00 16 00 70 FD 
    738      7254.063 DT     07A2 Rx 8  2C 20 EC 5D 4C 20 00 80 
    739      7254.241 DT     07A2 Rx 8  2D 6C 01 01 00 AA 22 C1 
    740      7254.487 DT     07A2 Rx 8  2E 10 FC 1C 88 B2 10 22 
    741      7254.680 DT     07A2 Rx 8  2F CA 10 AB 22 C1 10 FC 
    742      7254.874 DT     07A2 Rx 8  20 1C 48 B3 FC 1C 88 B3 
    743      7255.102 DT     07A2 Rx 8  21 FC 1C C8 B3 FC 1C 08 
    744      7255.306 DT     07A2 Rx 8  22 B4 FC 1C 48 B4 FC 1C 
    745      7255.497 DT     07A2 Rx 8  23 88 B4 FC 1C C8 B4 FC 
    746      7255.684 DT     07A2 Rx 8  24 1C 08 B5 FC 1C 48 B5 
    747      7255.870 DT     07A2 Rx 8  25 FC 1C 88 B5 FC 1C C8 
    748      7256.074 DT     07A2 Rx 8  26 B5 FC 1C 08 B6 FC 1C 
    749      7256.254 DT     07A2 Rx 8  27 48 B6 FC 1C 88 BE FC 
    750      7256.445 DT     07A2 Rx 8  28 1C C8 BE AA 22 0C 10 
    751      7256.630 DT     07A2 Rx 8  29 FC 1C 88 B2 AA 22 4C 
    752      7256.815 DT     07A2 Rx 8  2A 10 FC 1C 88 B2 AA 22 
    753      7257.041 DT     07A2 Rx 8  2B 8C 10 FC 1C 88 B2 AA 
    754      7257.262 DT     07A2 Rx 8  2C 22 CC 10 FC 1C 88 B2 
    755      7257.457 DT     07A2 Rx 8  2D AA 22 0C 11 FC 1C 88 
    756      7257.643 DT     07A2 Rx 8  2E B2 AA 22 4C 11 FC 1C 
    757      7257.823 DT     07A2 Rx 8  2F 88 B2 AA 22 D6 17 FC 
    758      7258.028 DT     07A2 Rx 8  20 1C 88 B2 AA 22 16 10 
    759      7258.230 DT     07A2 Rx 8  21 FC 1C 88 B2 AA 22 56 
    760      7258.409 DT     07A2 Rx 8  22 10 FC 1C 88 B2 AA 22 
    761      7258.600 DT     07A2 Rx 8  23 96 10 FC 1C 88 B2 AA 
    762      7258.777 DT     07A2 Rx 8  24 22 D6 10 FC 1C 88 B2 
    763      7258.960 DT     07A2 Rx 8  25 AA 22 16 16 FC 1C 88 
    764      7259.103 DT     07A2 Rx 8  26 B2 AA 22 96 17 FC 1C 
    765      7259.223 DT     07A2 Rx 8  27 88 B2 0A 21 80 0F F9 
    766      7259.444 DT     07A2 Rx 8  28 20 D0 3E FC 1C 48 B0 
    767      7259.635 DT     07A2 Rx 8  29 31 01 CF FF 04 14 0A 
    768      7259.822 DT     07A2 Rx 8  2A 34 AB 22 96 17 04 14 
    769      7260.002 DT     07A2 Rx 8  2B 0A 34 AB 22 16 16 04 
    770      7260.194 DT     07A2 Rx 8  2C 14 0A 34 AB 22 D6 10 
    771      7260.379 DT     07A2 Rx 8  2D 04 14 0A 34 AB 22 96 
    772      7260.560 DT     07A2 Rx 8  2E 10 04 14 0A 34 AB 22 
    773      7260.746 DT     07A2 Rx 8  2F 56 10 04 14 0A 34 AB 
    774      7260.931 DT     07A2 Rx 8  20 22 16 10 04 14 0A 34 
    775      7261.192 DT     07A2 Rx 8  21 AB 22 D6 17 04 14 0A 
    776      7261.384 DT     07A2 Rx 8  22 34 AB 22 4C 11 04 14 
    777      7261.567 DT     07A2 Rx 8  23 0A 34 AB 22 0C 11 04 
    778      7261.748 DT     07A2 Rx 8  24 14 0A 34 AB 22 CC 10 
    779      7261.935 DT     07A2 Rx 8  25 04 14 0A 34 AB 22 8C 
    780      7262.283 DT     07A2 Rx 8  26 10 04 14 0A 34 AB 22 
    781      7262.601 DT     07A2 Rx 8  27 4C 10 04 14 0A 34 AB 
    782      7262.860 DT     07A2 Rx 8  28 22 0C 10 04 14 3B 34 
    783      7263.049 DT     07A2 Rx 8  29 04 14 3A 34 04 14 19 
    784      7263.285 DT     07A2 Rx 8  2A 34 04 14 18 34 04 14 
    785      7263.468 DT     07A2 Rx 8  2B 17 34 04 14 16 34 04 
    786      7263.654 DT     07A2 Rx 8  2C 14 15 34 04 14 14 34 
    787      7263.842 DT     07A2 Rx 8  2D 04 14 13 34 04 14 12 
    788      7264.086 DT     07A2 Rx 8  2E 34 04 14 11 34 04 14 
    789      7264.266 DT     07A2 Rx 8  2F 10 34 04 14 0F 34 04 
    790      7264.451 DT     07A2 Rx 8  20 14 0E 34 04 14 0D 34 
    791      7264.644 DT     07A2 Rx 8  21 04 14 0A 34 AB 22 C1 
    792      7264.822 DT     07A2 Rx 8  22 10 40 24 1C 31 04 14 
    793      7265.156 DT     07A2 Rx 8  23 0A 34 AB 22 96 17 04 
    794      7265.363 DT     07A2 Rx 8  24 14 0A 34 AB 22 16 16 
    795      7265.600 DT     07A2 Rx 8  25 04 14 0A 34 AB 22 D6 
    796      7265.710 DT     07A2 Rx 8  26 10 04 14 0A 34 AB 22 
    797      7265.804 DT     07A2 Rx 8  27 96 10 04 14 0A 34 AB 
    798      7265.896 DT     07A2 Rx 8  28 22 56 10 04 14 0A 34 
    799      7266.064 DT     07A2 Rx 8  29 AB 22 16 10 04 14 0A 
    800      7266.210 DT     07A2 Rx 8  2A 34 AB 22 D6 17 04 14 
    801      7266.308 DT     07A2 Rx 8  2B 0A 34 AB 22 4C 11 04 
    802      7266.402 DT     07A2 Rx 8  2C 14 0A 34 AB 22 0C 11 
    803      7266.493 DT     07A2 Rx 8  2D 04 14 0A 34 AB 22 CC 
    804      7266.583 DT     07A2 Rx 8  2E 10 04 14 0A 34 AB 22 
    805      7266.673 DT     07A2 Rx 8  2F 8C 10 04 14 0A 34 AB 
    806      7266.761 DT     07A2 Rx 8  20 22 4C 10 04 14 0A 34 
    807      7266.851 DT     07A2 Rx 8  21 AB 22 0C 10 04 14 1E 
    808      7266.941 DT     07A2 Rx 8  22 34 04 14 1D 34 04 14 
    809      7267.048 DT     07A2 Rx 8  23 1B 34 04 14 1A 34 04 
    810      7267.137 DT     07A2 Rx 8  24 14 3B 34 04 14 3A 34 
    811      7267.226 DT     07A2 Rx 8  25 04 14 0C 34 6F 24 3F 
    812      7267.315 DT     07A2 Rx 8  26 00 F1 C0 A2 0D 00 03 
    813      7267.404 DT     07A2 Rx 8  27 DE 0C 00 03 A1 C1 08 
    814      7267.530 DT     07A2 Rx 8  28 46 85 C0 CB 45 FD 20 
    815      7267.634 DT     07A2 Rx 8  29 F0 65 40 C0 1E 0D 20 
    816      7267.729 DT     07A2 Rx 8  2A 02 A1 40 00 14 04 30 
    817      7267.821 DT     07A2 Rx 8  2B C3 40 F9 20 4C 40 4C 
    818      7267.913 DT     07A2 Rx 8  2C 70 A1 41 72 08 60 01 
    819      7268.003 DT     07A2 Rx 8  2D C1 43 08 46 1E 0D 20 
    820      7268.092 DT     07A2 Rx 8  2E 02 A1 40 C1 40 87 74 
    821      7268.182 DT     07A2 Rx 8  2F 24 DC 13 05 00 03 E2 
    822      7268.273 DT     07A2 Rx 8  20 C2 20 43 08 45 2C 71 
    823      7268.362 DT     07A2 Rx 8  21 60 40 CA 0D 20 02 A1 
    824      7268.451 DT     07A2 Rx 8  22 43 2C 8D 4C 77 E5 B9 
    825      7268.539 DT     07A2 Rx 8  23 CA 22 01 00 40 40 C2 
    826      7268.627 DT     07A2 Rx 8  24 C6 E0 78 E6 C2 4E 0B 
    827      7268.715 DT     07A2 Rx 8  25 20 02 08 46 17 D5 08 
    828      7268.803 DT     07A2 Rx 8  26 47 C6 0C 20 02 A1 40 
    829      7268.892 DT     07A2 Rx 8  27 2C 71 C1 40 E1 42 9A 
    830      7268.995 DT     07A2 Rx 8  28 0D 20 02 A1 43 CC 8D 
    831      7269.085 DT     07A2 Rx 8  29 08 47 CE 0C 20 02 A1 
    832      7269.175 DT     07A2 Rx 8  2A 40 E5 BE 0C 77 CA 20 
    833      7269.264 DT     07A2 Rx 8  2B C1 03 C6 C6 E0 78 E4 
    834      7269.353 DT     07A2 Rx 8  2C C2 0C D5 08 46 9A 0C 
    835      7269.441 DT     07A2 Rx 8  2D 20 02 A1 40 C1 40 52 
    836      7269.530 DT     07A2 Rx 8  2E 0D 20 02 A1 41 04 71 
    837      7269.618 DT     07A2 Rx 8  2F 10 E8 0A D8 1E 0D 20 
    838      7269.708 DT     07A2 Rx 8  20 02 A1 41 04 71 0A E8 
    839      7269.796 DT     07A2 Rx 8  21 96 0C 20 02 A1 40 0C 
    840      7269.884 DT     07A2 Rx 8  22 70 C4 C6 E0 78 F0 65 
    841      7269.987 DT     07A2 Rx 8  23 FD 20 86 0C 20 02 A1 
    842      7270.098 DT     07A2 Rx 8  24 40 0C 77 C4 C6 E0 78 
    843      7270.189 DT     07A2 Rx 8  25 EC C2 30 40 BF B9 CB 
    844      7270.279 DT     07A2 Rx 8  26 43 F0 3F 00 00 33 09 
    845      7270.368 DT     07A2 Rx 8  27 E4 02 10 42 00 21 80 
    846      7270.458 DT     07A2 Rx 8  28 0F 10 C0 00 00 05 20 
    847      7270.546 DT     07A2 Rx 8  29 BE 84 AD 70 AE F2 C3 
    848      7270.636 DT     07A2 Rx 8  2A 40 FD 20 2C 06 2C 71 
    849      7270.724 DT     07A2 Rx 8  2B 8C 70 AC 70 42 42 56 
    850      7270.814 DT     07A2 Rx 8  2C 0E 60 00 02 43 C3 41 
    851      7270.903 DT     07A2 Rx 8  2D F8 7F 00 00 B1 F0 25 
    852      7271.014 DT     07A2 Rx 8  2E 09 85 0F E0 3F 00 00 
    853      7271.108 DT     07A2 Rx 8  2F D3 71 60 3C 00 00 C7 
    854      7271.198 DT     07A2 Rx 8  20 D5 56 01 0D 00 40 85 
    855      7271.288 DT     07A2 Rx 8  21 21 85 CA D0 3D 31 BE 
    856      7271.377 DT     07A2 Rx 8  22 00 0F 02 00 00 16 70 
    857      7271.465 DT     07A2 Rx 8  23 CB 40 E0 3F 00 00 83 
    858      7271.553 DT     07A2 Rx 8  24 17 06 76 CB 41 B3 3F 
    859      7271.640 DT     07A2 Rx 8  25 C5 B8 82 17 04 76 C3 
    860      7271.728 DT     07A2 Rx 8  26 47 E6 BF 6C 06 00 02 
    861      7271.817 DT     07A2 Rx 8  27 2B 00 2E 70 3D 33 7E 
    862      7271.905 DT     07A2 Rx 8  28 14 39 30 BE 24 32 30 
    863      7272.015 DT     07A2 Rx 8  29 50 14 31 31 BE 11 AA 
    864      7272.104 DT     07A2 Rx 8  2A 22 0C 21 36 37 3E 01 
    865      7272.191 DT     07A2 Rx 8  2B B2 D1 31 30 BE 24 36 
    866      7272.279 DT     07A2 Rx 8  2C 36 7E 70 00 40 E5 2A 
    867      7272.366 DT     07A2 Rx 8  2D B1 D0 31 30 BE 24 36 
    868      7272.454 DT     07A2 Rx 8  2E 36 3E 70 03 C0 27 3A 
    869      7272.540 DT     07A2 Rx 8  2F 31 30 BE 24 36 33 48 
    870      7272.628 DT     07A2 Rx 8  20 14 AA D3 AA 23 0C 11 
    871      7272.715 DT     07A2 Rx 8  21 3D 30 BE 24 AA D2 31 
    872      7272.802 DT     07A2 Rx 8  22 36 FE 70 02 3F E1 3D 
    873      7272.888 DT     07A2 Rx 8  23 36 36 BE 70 49 3F E0 
    874      7273.023 DT     07A2 Rx 8  24 EF AA D7 31 30 BE 24 
    875      7273.142 DT     07A2 Rx 8  25 36 36 FE 73 A4 BF 28 
    876      7273.236 DT     07A2 Rx 8  26 82 A3 D6 31 30 BE 24 
    877      7273.327 DT     07A2 Rx 8  27 36 36 BE 73 C9 3F 55 
    878      7273.417 DT     07A2 Rx 8  28 C1 A4 D5 31 30 BE 24 
    879      7273.507 DT     07A2 Rx 8  29 36 36 7E 73 D4 BF 12 
    880      7273.596 DT     07A2 Rx 8  2A D6 9D D4 31 30 BE 24 
    881      7273.685 DT     07A2 Rx 8  2B 36 36 3E 73 C5 3F 55 
    882      7273.773 DT     07A2 Rx 8  2C 55 31 30 81 24 AA 20 
    883      7273.862 DT     07A2 Rx 8  2D 8C 00 61 42 36 0B E0 
    884      7273.950 DT     07A2 Rx 8  2E 02 01 43 08 47 28 46 
    885      7274.039 DT     07A2 Rx 8  2F 42 40 4E 0F E0 00 02 
    886      7274.127 DT     07A2 Rx 8  20 41 3D 31 3E 00 31 36 
    887      7274.216 DT     07A2 Rx 8  21 CF 13 3D 31 7E 04 AA 
    888      7274.304 DT     07A2 Rx 8  22 26 8C 10 31 31 42 04 
    889      7274.391 DT     07A2 Rx 8  23 28 45 3D 30 BE 24 AA 
    890      7274.507 DT     07A2 Rx 8  24 21 8C 00 39 32 41 00 
    891      7274.726 DT     07A2 Rx 8  25 3D 35 3E 10 AA 20 8C 
    892      7274.870 DT     07A2 Rx 8  26 00 35 35 43 14 F6 0A 
    893      7274.966 DT     07A2 Rx 8  27 E0 02 AA 22 8C 00 3D 
    894      7275.057 DT     07A2 Rx 8  28 31 3E 00 35 37 BE 13 
    895      7275.147 DT     07A2 Rx 8  29 36 35 41 14 AA 20 0C 
    896      7275.246 DT     07A2 Rx 8  2A 01 35 31 01 00 E1 01 
    897      7275.427 DT     07A2 Rx 8  2B 00 00 16 70 2C 70 0F 
    898      7275.694 DT     07A2 Rx 8  2C F6 7A D0 40 80 01 80 
    899      7275.920 DT     07A2 Rx 8  2D 7D D1 3D 30 BE 00 35 
    900      7276.119 DT     07A2 Rx 8  2E 30 BE 00 36 36 41 70 
    901      7276.272 DT     07A2 Rx 8  2F 09 40 FB 21 AA 25 0C 
    902      7276.373 DT     07A2 Rx 8  20 11 C1 01 00 00 3D 30 
    903      7276.471 DT     07A2 Rx 8  21 BE 24 34 D0 31 30 87 
    904      7276.615 DT     07A2 Rx 8  22 24 33 D3 32 36 3E 70 
    905      7276.718 DT     07A2 Rx 8  23 B3 3F C5 B8 AA 20 8C 
    906      7276.811 DT     07A2 Rx 8  24 00 35 36 FE 70 E6 BF 
    907      7308.149 DT     07AA Rx 8  02 76 03 55 55 55 55 55 
    908      7308.845 DT     07A2 Rx 8  18 02 36 04 6C 06 68 D2 
    909      7309.823 DT     07AA Rx 8  30 00 00 55 55 55 55 55 
    910      7310.037 DT     07A2 Rx 8  21 32 37 3E 00 35 36 BE 
    911      7310.130 DT     07A2 Rx 8  22 70 00 40 E5 2A 67 D1 
    912      7310.220 DT     07A2 Rx 8  23 32 37 3E 00 35 36 7E 
    913      7310.309 DT     07A2 Rx 8  24 70 03 C0 27 3A 32 37 
    914      7310.396 DT     07A2 Rx 8  25 3E 00 61 17 06 76 75 
    915      7310.484 DT     07A2 Rx 8  26 33 03 10 3D 37 3E 00 
    916      7310.651 DT     07A2 Rx 8  27 61 17 09 76 AA 22 8C 
    917      7310.758 DT     07A2 Rx 8  28 00 31 36 BE 71 02 3F 
    918      7310.851 DT     07A2 Rx 8  29 E1 3D 36 36 7E 72 49 
    919      7310.945 DT     07A2 Rx 8  2A 3F E0 EF 5F 17 08 76 
    920      7311.033 DT     07A2 Rx 8  2B 31 37 3E 00 36 36 3E 
    921      7311.122 DT     07A2 Rx 8  2C 72 A4 BF 28 82 58 D7 
    922      7311.209 DT     07A2 Rx 8  2D 31 37 3E 00 36 36 FE 
    923      7311.297 DT     07A2 Rx 8  2E 73 C9 3F 55 C1 58 D6 
    924      7311.388 DT     07A2 Rx 8  2F 31 37 3E 00 36 36 BE 
    925      7311.476 DT     07A2 Rx 8  20 73 D4 BF 12 D6 52 D4 
    926      7311.691 DT     07A2 Rx 8  21 31 37 3E 00 36 36 3E 
    927      7311.923 DT     07A2 Rx 8  22 73 C5 3F 55 55 31 37 
    928      7312.145 DT     07A2 Rx 8  23 01 00 0E 0A E0 02 AA 
    929      7312.342 DT     07A2 Rx 8  24 20 8C 00 3D 31 3E 00 
    930      7312.640 DT     07A2 Rx 8  25 31 30 8C 24 AA 23 8C 
    931      7312.829 DT     07A2 Rx 8  26 00 40 85 21 85 48 D0 
    932      7313.035 DT     07A2 Rx 8  27 3D 31 BE 00 39 34 FE 
    933      7313.216 DT     07A2 Rx 8  28 10 3A 30 BE 24 35 36 
    934      7313.401 DT     07A2 Rx 8  29 01 70 F9 3F FB 21 74 
    935      7313.620 DT     07A2 Rx 8  2A F0 82 92 2E B1 59 01 
    936      7313.826 DT     07A2 Rx 8  2B 8D 1B 3D 30 BE 24 35 
    937      7314.004 DT     07A2 Rx 8  2C 33 7E 14 32 30 50 14 
    938      7314.210 DT     07A2 Rx 8  2D 31 31 BE 11 AA 22 0C 
    939      7314.402 DT     07A2 Rx 8  2E 21 36 37 3E 01 33 D1 
    940      7314.617 DT     07A2 Rx 8  2F 31 30 BE 24 36 36 7E 
    941      7314.831 DT     07A2 Rx 8  20 70 00 40 E5 2A 33 D0 
    942      7315.015 DT     07A2 Rx 8  21 31 30 BE 24 36 36 3E 
    943      7315.195 DT     07A2 Rx 8  22 70 03 C0 27 3A 31 30 
    944      7315.386 DT     07A2 Rx 8  23 BE 24 36 33 48 14 2B 
    945      7315.875 DT     07A2 Rx 8  24 D3 AA 23 0C 11 3D 30 
    946      7316.185 DT     07A2 Rx 8  25 BE 24 2C D2 31 36 FE 
    947      7316.432 DT     07A2 Rx 8  26 70 02 3F E1 3D 36 36 
    948      7316.705 DT     07A2 Rx 8  27 BE 70 49 3F E0 EF 2B 
    949      7316.922 DT     07A2 Rx 8  28 D7 31 30 BE 24 36 36 
    950      7317.109 DT     07A2 Rx 8  29 FE 73 A4 BF 28 82 25 
    951      7317.289 DT     07A2 Rx 8  2A D6 31 30 BE 24 36 36 
    952      7317.481 DT     07A2 Rx 8  2B BE 73 C9 3F 55 C1 25 
    953      7317.658 DT     07A2 Rx 8  2C D5 31 30 BE 24 36 36 
    954      7317.826 DT     07A2 Rx 8  2D 7E 73 D4 BF 12 D6 1F 
    955      7318.009 DT     07A2 Rx 8  2E D4 31 30 BE 24 36 36 
    956      7318.262 DT     07A2 Rx 8  2F 3E 73 C5 3F 55 55 31 
    957      7318.448 DT     07A2 Rx 8  20 30 81 24 AA 20 8C 00 
    958      7318.675 DT     07A2 Rx 8  21 61 42 3E 09 E0 02 01 
    959      7318.902 DT     07A2 Rx 8  22 43 08 46 28 45 42 40 
    960      7319.062 DT     07A2 Rx 8  23 56 0D E0 00 02 41 10 
    961      7319.267 DT     07A2 Rx 8  24 D2 60 82 41 82 3D 31 
    962      7319.454 DT     07A2 Rx 8  25 3E 00 31 35 BE 13 3A 
    963      7319.677 DT     07A2 Rx 8  26 32 FE 00 35 31 01 00 
    964      7319.858 DT     07A2 Rx 8  27 AA 20 8C 00 0F D4 36 
    965      7320.044 DT     07A2 Rx 8  28 31 01 00 AA 20 0C 01 
    966      7320.229 DT     07A2 Rx 8  29 3D 36 3E 73 09 40 FB 
    967      7320.417 DT     07A2 Rx 8  2A 21 39 31 01 00 AA 25 
    968      7320.648 DT     07A2 Rx 8  2B 8C 10 A1 40 CC C6 C8 
    969      7320.842 DT     07A2 Rx 8  2C 8A 59 9C 09 F7 FD 0D 
    970      7321.029 DT     07A2 Rx 8  2D 38 63 FD 20 4B 2D 8A 
    971      7321.211 DT     07A2 Rx 8  2E 1C 88 B2 01 75 55 44 
    972      7321.395 DT     07A2 Rx 8  2F 88 0E 55 55 55 55 18 
    973      7321.614 DT     07A2 Rx 8  20 2D 44 54 3B 8F 68 B5 
    974      7321.801 DT     07A2 Rx 8  21 7D 6F EB 03 E4 C2 7F 
    975      7321.988 DT     07A2 Rx 8  22 DE 00 42 BF B8 17 BE 
    976      7322.166 DT     07A2 Rx 8  23 D1 70 86 F7 11 F4 EB 
    977      7322.356 DT     07A2 Rx 8  24 0A 72 00 0C 70 C4 C6 
    978      7322.575 DT     07A2 Rx 8  25 2D 08 85 0F 00 3F 00 
    979      7322.763 DT     07A2 Rx 8  26 00 52 D5 8F 08 85 0F 
    980      7322.948 DT     07A2 Rx 8  27 80 32 01 00 00 85 62 
    981      7323.126 DT     07A2 Rx 8  28 F0 C3 40 FD 20 31 06 
    982      7323.310 DT     07A2 Rx 8  29 2C 71 5A 0B 60 00 6C 
    983      7323.494 DT     07A2 Rx 8  2A 70 C3 40 C0 7F 00 00 
    984      7323.710 DT     07A2 Rx 8  2B C4 C6 3F D9 C9 0A 32 
    985      7323.888 DT     07A2 Rx 8  2C 00 18 B9 02 36 80 10 
    986      7324.080 DT     07A2 Rx 8  2D 00 30 43 00 2F 33 C0 
    987      7324.257 DT     07A2 Rx 8  2E 10 00 33 80 0F 0D BC 
    988      7324.442 DT     07A2 Rx 8  2F 6B D3 01 30 80 0F 2F 
    989      7324.668 DT     07A2 Rx 8  20 BD BA 13 00 33 00 00 
    990      7324.870 DT     07A2 Rx 8  21 01 30 82 0F 2A 3E 75 
    991      7325.056 DT     07A2 Rx 8  22 AA 00 33 80 0F 34 BF 
    992      7325.242 DT     07A2 Rx 8  23 AE E5 01 30 81 03 00 
    993      7325.427 DT     07A2 Rx 8  24 33 80 00 6C 23 C2 12 
    994      7325.682 DT     07A2 Rx 8  25 07 30 4C 00 00 32 80 
    995      7325.875 DT     07A2 Rx 8  26 00 01 33 81 10 02 33 
    996      7326.028 DT     07A2 Rx 8  27 00 00 07 30 41 00 00 
    997      7326.255 DT     07A2 Rx 8  28 33 00 13 01 30 40 00 
    998      7326.441 DT     07A2 Rx 8  29 01 30 80 00 01 30 00 
    999      7326.620 DT     07A2 Rx 8  2A 00 C4 C6 00 32 83 00 
   1000      7326.814 DT     07A2 Rx 8  2B 00 33 80 0F 0D BC 6B 
   1001      7327.000 DT     07A2 Rx 8  2C D3 01 30 80 0F 2F BD 
   1002      7327.174 DT     07A2 Rx 8  2D BA 13 00 33 00 00 01 
   1003      7327.376 DT     07A2 Rx 8  2E 30 8C 0F 2A 3E 75 AA 
   1004      7327.563 DT     07A2 Rx 8  2F 00 33 80 0F 34 BF AE 
   1005      7327.742 DT     07A2 Rx 8  20 E5 01 30 81 03 00 33 
   1006      7327.926 DT     07A2 Rx 8  21 00 03 07 30 40 00 20 
   1007      7328.108 DT     07A2 Rx 8  22 85 00 30 80 00 02 31 
   1008      7328.272 DT     07A2 Rx 8  23 00 00 02 30 80 00 01 
   1009      7328.457 DT     07A2 Rx 8  24 30 80 0F C9 3F DA 0F 
   1010      7328.680 DT     07A2 Rx 8  25 C4 C6 1C D0 00 80 01 
   1011      7328.986 DT     07A2 Rx 8  26 30 00 00 01 30 80 0F 
   1012      7329.312 DT     07A2 Rx 8  27 49 40 DA 0F C4 C6 01 
   1013      7329.556 DT     07A2 Rx 8  28 32 80 03 00 30 42 00 
   1014      7329.707 DT     07A2 Rx 8  29 00 32 80 0F 0D BC 6B 
   1015      7329.956 DT     07A2 Rx 8  2A D3 2F 34 80 10 01 30 
   1016      7330.093 DT     07A2 Rx 8  2B 80 0F 2F BD BA 13 00 
   1017      7330.197 DT     07A2 Rx 8  2C 32 00 00 01 30 83 0F 
   1018      7330.291 DT     07A2 Rx 8  2D 2A 3E 75 AA 00 32 80 
   1019      7330.382 DT     07A2 Rx 8  2E 0F 34 BF AE E5 01 30 
   1020      7330.474 DT     07A2 Rx 8  2F 81 03 00 32 C0 00 07 
   1021      7330.565 DT     07A2 Rx 8  20 30 42 00 08 D0 20 80 
   1022      7330.655 DT     07A2 Rx 8  21 00 34 80 10 02 30 40 
   1023      7330.744 DT     07A2 Rx 8  22 00 01 34 00 10 01 30 
   1024      7330.833 DT     07A2 Rx 8  23 00 00 02 36 00 70 49 
   1025      7330.990 DT     07A2 Rx 8  24 40 DA 0F C4 C6 E0 78 
   1026      7331.083 DT     07A2 Rx 8  25 40 63 FD 20 E8 C2 7F 
   1027      7331.175 DT     07A2 Rx 8  26 DC 08 45 BF B8 17 BC 
   1028      7331.264 DT     07A2 Rx 8  27 91 70 92 F7 40 F4 D2 
   1029      7331.353 DT     07A2 Rx 8  28 0E A0 02 A1 40 46 D2 
   1030      7331.468 DT     07A2 Rx 8  29 3D 31 3E 00 31 36 81 
   1031      7331.729 DT     07A2 Rx 8  2A 70 F9 3F FB 21 16 0E 
   1032      7331.829 DT     07A2 Rx 8  2B A0 02 AA 20 8C 00 08 
   1033      7331.920 DT     07A2 Rx 8  2C 45 7E F0 75 08 85 0F 
   1034      7332.011 DT     07A2 Rx 8  2D 00 3F 00 00 01 35 81 
   1035      7332.101 DT     07A2 Rx 8  2E 1F 49 71 CA F2 04 31 
   1036      7332.191 DT     07A2 Rx 8  2F 00 83 C5 F6 E5 08 84 
   1037      7332.280 DT     07A2 Rx 8  20 0F 80 39 00 00 00 35 
   1038      7332.369 DT     07A2 Rx 8  21 43 13 00 33 80 0F 0D 
   1039      7332.486 DT     07A2 Rx 8  22 BC 6B D3 01 30 80 0F 
   1040      7332.751 DT     07A2 Rx 8  23 2F BD BA 13 00 33 00 
   1041      7332.995 DT     07A2 Rx 8  24 00 01 30 82 0F 2A 3E 
   1042      7333.208 DT     07A2 Rx 8  25 75 AA 00 33 80 0F 34 
   1043      7333.312 DT     07A2 Rx 8  26 BF AE E5 01 30 01 03 
   1044      7333.405 DT     07A2 Rx 8  27 00 33 80 00 07 30 40 
   1045      7333.498 DT     07A2 Rx 8  28 00 00 30 40 03 01 30 
   1046      7333.589 DT     07A2 Rx 8  29 4D 03 50 F0 C3 40 FD 
   1047      7333.677 DT     07A2 Rx 8  2A 20 37 06 2C 71 6C 70 
   1048      7333.766 DT     07A2 Rx 8  2B 8E 09 60 00 A1 42 CB 
   1049      7333.856 DT     07A2 Rx 8  2C 45 C0 7F 00 00 44 F0 
   1050      7333.944 DT     07A2 Rx 8  2D 02 34 00 10 00 30 8E 
   1051      7334.032 DT     07A2 Rx 8  2E 0F 00 3F 00 00 00 36 
   1052      7334.121 DT     07A2 Rx 8  2F 80 1F 0D BC 6B D3 01 
   1053      7334.210 DT     07A2 Rx 8  20 30 80 0F 2F BD BA 13 
   1054      7334.297 DT     07A2 Rx 8  21 00 36 00 10 01 30 82 
   1055      7334.393 DT     07A2 Rx 8  22 0F 2A 3E 75 AA 00 36 
   1056      7334.550 DT     07A2 Rx 8  23 80 1F 34 BF AE E5 01 
   1057      7334.677 DT     07A2 Rx 8  24 30 01 03 00 36 80 10 
   1058      7334.775 DT     07A2 Rx 8  25 06 0E A0 02 07 30 40 
   1059      7334.866 DT     07A2 Rx 8  26 00 10 40 C1 40 FA 0D 
   1060      7334.957 DT     07A2 Rx 8  27 A0 02 28 47 96 0A C0 
   1061      7335.047 DT     07A2 Rx 8  28 00 3D 31 3E 00 31 37 
   1062      7335.137 DT     07A2 Rx 8  29 3E 14 36 31 01 00 AA 
   1063      7335.227 DT     07A2 Rx 8  2A 20 0C 01 0B D2 35 31 
   1064      7335.317 DT     07A2 Rx 8  2B 01 00 3D 36 BE 70 F9 
   1065      7335.405 DT     07A2 Rx 8  2C 3F FB 21 AA 20 8C 00 
   1066      7335.494 DT     07A2 Rx 8  2D 39 31 01 00 22 0D A0 
   1067      7335.582 DT     07A2 Rx 8  2E 02 AA 20 8C 00 B5 70 
   1068      7335.671 DT     07A2 Rx 8  2F 08 45 D2 25 EC 17 A1 
   1069      7335.759 DT     07A2 Rx 8  20 40 C8 C6 18 2D 44 54 
   1070      7335.847 DT     07A2 Rx 8  21 E2 C2 28 45 A2 08 20 
   1071      7335.935 DT     07A2 Rx 8  22 02 BF B9 B5 70 D2 21 
   1072      7336.027 DT     07A2 Rx 8  23 EB 07 C2 C6 E0 78 E2 
   1073      7336.118 DT     07A2 Rx 8  24 C2 08 45 AA 09 20 02 
   1074      7336.205 DT     07A2 Rx 8  25 BF B8 B5 70 D2 20 EB 
   1075      7336.293 DT     07A2 Rx 8  26 07 C2 C6 E0 78 E8 C2 
   1076      7336.380 DT     07A2 Rx 8  27 53 7D 45 7D 50 23 CC 
   1077      7336.533 DT     07A2 Rx 8  28 07 3F BD CB 46 F0 7F 
   1078      7336.717 DT     07A2 Rx 8  29 00 00 85 7D 19 0E 64 
   1079      7336.823 DT     07A2 Rx 8  2A 13 13 7D 05 7D 50 21 
   1080      7336.987 DT     07A2 Rx 8  2B CF 07 3F BD E5 7D 17 
   1081      7337.115 DT     07A2 Rx 8  2C 0D 84 1F F0 7F 01 00 
   1082      7337.210 DT     07A2 Rx 8  2D 3D 31 3E 00 35 33 81 
   1083      7337.303 DT     07A2 Rx 8  2E 00 AA 20 8C 00 C8 C6 
   1084      7337.394 DT     07A2 Rx 8  2F 89 EA 0F 0B 81 0F F0 
   1085      7337.503 DT     07A2 Rx 8  20 3F 00 00 96 0F CF FF 
   1086      7337.594 DT     07A2 Rx 8  21 C8 C6 41 2B 88 07 41 
   1087      7337.684 DT     07A2 Rx 8  22 29 CB 07 44 20 90 10 
   1088      7337.774 DT     07A2 Rx 8  23 05 27 3E 90 05 20 D0 
   1089      7337.863 DT     07A2 Rx 8  24 22 1B F2 05 24 BE 90 
   1090      7337.951 DT     07A2 Rx 8  25 10 D5 25 F2 41 0C 81 
   1091      7338.039 DT     07A2 Rx 8  26 13 69 0F A1 13 0C 70 
   1092      7338.127 DT     07A2 Rx 8  27 BF 08 D0 20 CB 08 50 
   1093      7338.215 DT     07A2 Rx 8  28 20 D7 08 90 20 40 85 
   1094      7338.302 DT     07A2 Rx 8  29 21 85 5A D0 3D 31 BE 
   1095      7338.389 DT     07A2 Rx 8  2A 00 35 36 01 70 E9 3F 
   1096      7338.481 DT     07A2 Rx 8  2B FB 21 D2 F1 A9 08 94 
   1097      7338.646 DT     07A2 Rx 8  2C A0 04 D0 7F 08 D0 20 
   1098      7338.838 DT     07A2 Rx 8  2D 40 80 21 80 70 F0 E0 
   1099      7338.941 DT     07A2 Rx 8  2E 78 48 63 FD 20 41 0F 
   1100      7339.034 DT     07A2 Rx 8  2F A1 13 94 4F 61 85 4E 
   1101      7339.145 DT     07A2 Rx 8  20 D0 17 09 32 00 40 85 
   1102      7339.291 DT     07A2 Rx 8  21 3D 33 BE 00 35 36 01 
   1103      7339.486 DT     07A2 Rx 8  22 70 F9 3F FB 21 B8 F1 
   1104      7339.703 DT     07A2 Rx 8  23 3D 36 3E 70 F9 BF FB 
   1105      7339.803 DT     07A2 Rx 8  24 21 39 33 81 00 B2 F1 
   1106      7339.896 DT     07A2 Rx 8  25 65 08 30 A0 2C 70 91 
   1107      7339.989 DT     07A2 Rx 8  26 08 D0 20 A1 08 B0 20 
   1108      7340.094 DT     07A2 Rx 8  27 6F 21 43 00 C8 C6 35 
   1109      7340.185 DT     07A2 Rx 8  28 0C 82 1F D0 03 00 00 
   1110      7340.275 DT     07A2 Rx 8  29 62 85 43 85 2C 70 3D 
   1111      7340.364 DT     07A2 Rx 8  2A D0 3D 32 FE 00 31 36 
   1112      7340.482 DT     07A2 Rx 8  2B 7E 70 E0 3F 00 00 36 
   1113      7340.608 DT     07A2 Rx 8  2C 36 0C 70 F9 3F FB 21 
   1114      7340.745 DT     07A2 Rx 8  2D 0A 20 C0 22 AA 20 0C 
   1115      7340.883 DT     07A2 Rx 8  2E 01 44 F0 40 80 21 80 
   1116      7341.002 DT     07A2 Rx 8  2F 2A F0 75 0B 13 00 71 
   1117      7341.138 DT     07A2 Rx 8  20 0C 83 1F 40 FC 00 00 
   1118      7341.233 DT     07A2 Rx 8  21 8D 70 0C 70 38 F0 40 
   1119      7341.324 DT     07A2 Rx 8  22 85 21 85 0D D0 3D 36 
   1120      7341.437 DT     07A2 Rx 8  23 3E 70 02 C0 7C D9 1D 
   1121      7341.536 DT     07A2 Rx 8  24 F0 40 85 21 85 2A D0 
   1122      7341.628 DT     07A2 Rx 8  25 3D 36 3E 70 E9 BF FB 
   1123      7341.717 DT     07A2 Rx 8  26 21 15 F0 40 85 21 85 
   1124      7341.837 DT     07A2 Rx 8  27 05 D0 3D 31 BE 00 35 
   1125      7341.942 DT     07A2 Rx 8  28 36 01 70 02 40 7C D9 
   1126      7342.035 DT     07A2 Rx 8  29 6A F1 E0 78 D2 21 33 
   1127      7342.377 DT     07A2 Rx 8  2A 7F 40 85 21 85 1F D0 
   1128      7342.784 DT     07A2 Rx 8  2B 3D 36 3E 70 09 C0 FB 
   1129      7343.182 DT     07A2 Rx 8  2C 21 39 31 81 00 5E F1 
   1130      7343.340 DT     07A2 Rx 8  2D 40 85 21 85 1A D0 3D 
   1131      7343.454 DT     07A2 Rx 8  2E 31 BE 00 35 36 01 70 
   1132      7343.670 DT     07A2 Rx 8  2F 09 40 FB 21 54 F1 76 
   1133      7343.823 DT     07A2 Rx 8  20 0C 80 02 46 0E EF FF 
   1134      7343.941 DT     07A2 Rx 8  21 BF B9 28 44 4C 20 00 
   1135      7344.151 DT     07A2 Rx 8  22 A0 98 06 E1 FF 81 41 
   1136      7344.325 DT     07A2 Rx 8  23 11 08 90 20 25 08 71 
   1137      7344.425 DT     07A2 Rx 8  24 20 52 24 C1 17 C8 C6 
   1138      7344.547 DT     07A2 Rx 8  25 62 85 43 85 0C D1 3D 
   1139      7344.682 DT     07A2 Rx 8  26 32 FE 00 39 34 3E 10 
   1140      7344.782 DT     07A2 Rx 8  27 36 36 41 70 09 40 FB 
   1141      7344.877 DT     07A2 Rx 8  28 21 0D F0 42 85 23 85 
   1142      7345.056 DT     07A2 Rx 8  29 3D 34 3E 10 05 D0 39 
   1143      7345.163 DT     07A2 Rx 8  2A 31 BE 00 36 36 01 70 
   1144      7345.256 DT     07A2 Rx 8  2B 09 C0 FB 21 AA 20 0C 
   1145      7345.349 DT     07A2 Rx 8  2C 01 C8 C6 18 2D 44 54 
   1146      7345.440 DT     07A2 Rx 8  2D E6 C2 FF DF 50 20 C3 
   1147      7345.571 DT     07A2 Rx 8  2E 07 17 BF 21 0F E4 10 
   1148      7345.668 DT     07A2 Rx 8  2F 50 21 C2 07 19 0A 85 
   1149      7345.761 DT     07A2 Rx 8  20 0F 80 7F 01 00 17 09 
   1150      7345.852 DT     07A2 Rx 8  21 81 0F 80 3F 00 00 E2 
   1151      7345.945 DT     07A2 Rx 8  22 0D CF FF C6 C6 01 30 
   1152      7346.037 DT     07A2 Rx 8  23 40 00 C6 C6 41 29 8B 
   1153      7346.127 DT     07A2 Rx 8  24 07 41 28 CC 07 44 23 
   1154      7346.216 DT     07A2 Rx 8  25 8E 10 85 7E 10 EB 2D 
   1155      7346.308 DT     07A2 Rx 8  26 0A E0 03 54 70 20 D5 
   1156      7346.398 DT     07A2 Rx 8  27 CC 23 C2 83 24 F4 3B 
   1157      7346.486 DT     07A2 Rx 8  28 08 32 00 20 85 01 31 
   1158      7346.575 DT     07A2 Rx 8  29 80 0F C9 3F DB 0F C6 
   1159      7346.665 DT     07A2 Rx 8  2A C6 CB 0E 94 90 19 D0 
   1160      7346.752 DT     07A2 Rx 8  2B 75 0E D1 10 32 F0 49 
   1161      7346.840 DT     07A2 Rx 8  2C 0B C1 03 16 D0 85 0E 
   1162      7346.927 DT     07A2 Rx 8  2D D0 10 8D 0E 50 10 95 
   1163      7347.046 DT     07A2 Rx 8  2E 0E 90 10 00 80 01 30 
   1164      7347.150 DT     07A2 Rx 8  2F 80 0F 49 3F DB 0F C6 
   1165      7347.245 DT     07A2 Rx 8  20 C6 02 36 40 70 C9 BF 
   1166      7347.352 DT     07A2 Rx 8  21 DB 0F C6 C6 52 4B 51 
   1167      7347.469 DT     07A2 Rx 8  22 0A 82 0F 80 0D 00 00 
   1168      7347.563 DT     07A2 Rx 8  23 01 85 89 46 00 30 80 
   1169      7347.654 DT     07A2 Rx 8  24 0F 00 3F 00 00 01 30 
   1170      7347.744 DT     07A2 Rx 8  25 82 0F C9 3F DB 0F 3C 
   1171      7347.833 DT     07A2 Rx 8  26 F0 32 EE 05 D0 15 0E 
   1172      7347.922 DT     07A2 Rx 8  27 D0 10 1D 0E 90 10 6F 
   1173      7348.015 DT     07A2 Rx 8  28 20 43 00 C6 C6 E0 78 
   1174      7348.105 DT     07A2 Rx 8  29 58 63 FD 20 00 80 02 
   1175      7348.194 DT     07A2 Rx 8  2A 36 00 70 49 C0 DB 0F 
   1176      7348.282 DT     07A2 Rx 8  2B C6 C6 00 80 01 30 80 
   1177      7348.370 DT     07A2 Rx 8  2C 0F 49 40 DB 0F C6 C6 
   1178      7348.458 DT     07A2 Rx 8  2D 39 09 13 00 35 0A 83 
   1179      7348.579 DT     07A2 Rx 8  2E 0F 00 F3 00 00 4C 70 
   1180      7348.749 DT     07A2 Rx 8  2F 1C F0 00 80 02 36 00 
   1181      7348.848 DT     07A2 Rx 8  20 70 16 C0 E4 CB C6 C6 
   1182      7348.939 DT     07A2 Rx 8  21 00 80 02 36 00 70 49 
   1183      7349.081 DT     07A2 Rx 8  22 BF DB 0F C6 C6 00 80 
   1184      7349.178 DT     07A2 Rx 8  23 01 30 80 0F 16 40 E4 
   1185      7349.267 DT     07A2 Rx 8  24 CB C6 C6 0C 70 C6 C6 
   1186      7349.356 DT     07A2 Rx 8  25 07 30 40 00 E6 0C EF 
   1187      7349.444 DT     07A2 Rx 8  26 FF BF B8 00 42 08 EE 
   1188      7349.532 DT     07A2 Rx 8  27 15 0E 90 10 19 0E 71 
   1189      7349.651 DT     07A2 Rx 8  28 10 52 22 C0 07 C6 C6 
   1190      7349.748 DT     07A2 Rx 8  29 40 40 C6 C6 01 85 02 
   1191      7349.841 DT     07A2 Rx 8  2A 30 80 00 CD F1 01 85 
   1192      7349.932 DT     07A2 Rx 8  2B 02 32 00 00 01 30 80 
   1193      7350.037 DT     07A2 Rx 8  2C 0F 49 C0 DB 0F C6 C6 
   1194      7350.127 DT     07A2 Rx 8  2D E8 C2 28 47 AA 0B E0 
   1195      7350.217 DT     07A2 Rx 8  2E 00 10 40 02 42 E1 43 
   1196      7350.305 DT     07A2 Rx 8  2F 08 46 26 09 A0 02 28 
   1197      7350.392 DT     07A2 Rx 8  20 45 0C 70 3D 35 BE 13 
   1198      7350.481 DT     07A2 Rx 8  21 6F 22 0B 00 35 36 01 
   1199      7350.570 DT     07A2 Rx 8  22 70 F0 3F 00 00 E0 BA 
   1200      7350.659 DT     07A2 Rx 8  23 AA 20 8C 00 1C 76 3C 
   1201      7350.746 DT     07A2 Rx 8  24 75 C1 40 A1 41 C8 C6 
   1202      7379.166 DT     07AA Rx 8  02 76 04 55 55 55 55 55 
   1203      7380.577 DT     07A2 Rx 8  18 02 36 05 E2 C2 4E 0B 
   1204      7381.561 DT     07AA Rx 8  30 00 00 55 55 55 55 55 
   1205      7382.313 DT     07A2 Rx 8  21 E0 00 08 45 01 30 81 
   1206      7382.688 DT     07A2 Rx 8  22 0F 80 3F 00 00 04 30 
   1207      7382.928 DT     07A2 Rx 8  23 40 83 CA 20 45 00 C2 
   1208      7383.269 DT     07A2 Rx 8  24 C6 E0 78 F0 C2 50 21 
   1209      7383.510 DT     07A2 Rx 8  25 CE 07 C3 43 86 40 42 
   1210      7383.829 DT     07A2 Rx 8  26 2E 30 41 10 40 2F 0E 
   1211      7384.030 DT     07A2 Rx 8  27 E4 10 41 29 CD 07 4F 
   1212      7384.224 DT     07A2 Rx 8  28 0E 84 1F F0 7F 00 00 
   1213      7384.402 DT     07A2 Rx 8  29 53 21 C0 24 05 20 3E 
   1214      7384.526 DT     07A2 Rx 8  2A 84 17 D0 3A 02 21 00 
   1215      7384.643 DT     07A2 Rx 8  2B 2C 71 8C 70 AC 70 02 
   1216      7384.799 DT     07A2 Rx 8  2C 42 76 0C 20 00 22 43 
   1217      7384.919 DT     07A2 Rx 8  2D D0 C6 4D 0E 84 1F D6 
   1218      7385.191 DT     07A2 Rx 8  2E 3F 43 2E A9 0E 85 1F 
   1219      7385.345 DT     07A2 Rx 8  2F F0 3F B2 A2 C3 40 FD 
   1220      7385.536 DT     07A2 Rx 8  20 20 58 06 B6 78 C5 80 
   1221      7385.805 DT     07A2 Rx 8  21 E4 80 41 80 00 80 52 
   1222      7386.055 DT     07A2 Rx 8  22 25 01 10 B5 49 70 F0 
   1223      7386.204 DT     07A2 Rx 8  23 C3 42 FA FE EF 39 02 
   1224      7386.463 DT     07A2 Rx 8  24 40 76 08 A0 02 22 41 
   1225      7386.686 DT     07A2 Rx 8  25 04 D6 50 00 2C 00 2C 
   1226      7386.956 DT     07A2 Rx 8  26 71 8C 70 AC 70 C1 40 
   1227      7387.191 DT     07A2 Rx 8  27 F6 F0 40 06 FD 20 C3 
   1228      7387.399 DT     07A2 Rx 8  28 40 00 88 9C 75 3D 31 
   1229      7387.597 DT     07A2 Rx 8  29 3E 24 35 36 01 70 37 
   1230      7387.825 DT     07A2 Rx 8  2A 7E 3C E4 AA 20 8C 00 
   1231      7388.022 DT     07A2 Rx 8  2B CB 47 F0 3F 00 00 4C 
   1232      7388.358 DT     07A2 Rx 8  2C 70 3E 08 A0 02 E1 43 
   1233      7388.612 DT     07A2 Rx 8  2D AE 00 2C 00 AD 70 AB 
   1234      7388.779 DT     07A2 Rx 8  2E 0E 85 1F 30 3E 00 00 
   1235      7388.981 DT     07A2 Rx 8  2F 3D 31 3E 24 35 37 41 
   1236      7389.151 DT     07A2 Rx 8  20 13 B9 F0 C3 42 2D D5 
   1237      7389.282 DT     07A2 Rx 8  21 51 30 C3 43 87 C0 10 
   1238      7389.399 DT     07A2 Rx 8  22 49 02 40 12 08 A0 02 
   1239      7389.634 DT     07A2 Rx 8  23 22 41 4A F7 2C 71 8C 
   1240      7389.843 DT     07A2 Rx 8  24 70 AC 70 C1 40 02 42 
   1241      7390.036 DT     07A2 Rx 8  25 AE 0B 20 00 22 43 D0 
   1242      7390.267 DT     07A2 Rx 8  26 C6 C3 40 FD 20 48 06 
   1243      7390.464 DT     07A2 Rx 8  27 B6 78 20 80 01 80 C3 
   1244      7390.660 DT     07A2 Rx 8  28 42 2B 65 FE 82 3D 31 
   1245      7390.854 DT     07A2 Rx 8  29 3E 24 31 36 BE 70 F7 
   1246      7391.039 DT     07A2 Rx 8  2A 3F 47 15 36 30 41 00 
   1247      7391.254 DT     07A2 Rx 8  2B F6 0E A0 02 AA 20 0C 
   1248      7391.387 DT     07A2 Rx 8  2C 01 96 0E A0 02 08 45 
   1249      7391.603 DT     07A2 Rx 8  2D C3 42 79 35 76 3C 3D 
   1250      7391.787 DT     07A2 Rx 8  2E 31 3E 00 C3 40 E0 FE 
   1251      7391.981 DT     07A2 Rx 8  2F 00 00 31 36 8E 70 EA 
   1252      7392.185 DT     07A2 Rx 8  20 3D EF 39 AA 27 8C 10 
   1253      7392.374 DT     07A2 Rx 8  21 31 36 02 70 E6 3F 42 
   1254      7392.560 DT     07A2 Rx 8  22 2E AA 20 8C 00 3D 31 
   1255      7392.745 DT     07A2 Rx 8  23 3E 24 39 32 14 00 3A 
   1256      7392.925 DT     07A2 Rx 8  24 36 D1 13 AA 23 8C 20 
   1257      7393.115 DT     07A2 Rx 8  25 AA 20 0C 21 05 F0 ED 
   1258      7393.348 DT     07A2 Rx 8  26 70 CD 70 6E 70 8E 70 
   1259      7393.553 DT     07A2 Rx 8  27 3D 31 3E 24 C3 40 BE 
   1260      7393.758 DT     07A2 Rx 8  28 72 D0 A4 31 31 01 24 
   1261      7393.966 DT     07A2 Rx 8  29 CB 43 D2 C5 F1 6B 32 
   1262      7394.260 DT     07A2 Rx 8  2A 36 3E 70 66 3E 69 37 
   1263      7394.423 DT     07A2 Rx 8  2B AA 20 8C 00 35 36 FE 
   1264      7394.547 DT     07A2 Rx 8  2C 72 BB BE 41 BD CB 44 
   1265      7394.665 DT     07A2 Rx 8  2D 25 AF 2C DE 32 31 3E 
   1266      7394.818 DT     07A2 Rx 8  2E 00 35 36 3E 73 11 3F 
   1267      7394.912 DT     07A2 Rx 8  2F 6A 56 C3 43 BE 16 93 
   1268      7395.003 DT     07A2 Rx 8  20 BD 32 31 3E 00 35 36 
   1269      7395.092 DT     07A2 Rx 8  21 FE 70 66 BF 6C C1 C3 
   1270      7395.230 DT     07A2 Rx 8  22 42 55 55 3E 55 32 31 
   1271      7395.364 DT     07A2 Rx 8  23 3E 00 35 36 BE 70 C5 
   1272      7395.701 DT     07A2 Rx 8  24 3F 55 55 32 31 01 00 
   1273      7395.948 DT     07A2 Rx 8  25 AA 20 0C 01 3D 31 3E 
   1274      7396.086 DT     07A2 Rx 8  26 24 39 31 02 00 32 31 
   1275      7396.302 DT     07A2 Rx 8  27 01 24 AA 23 8C 00 AA 
   1276      7396.455 DT     07A2 Rx 8  28 20 0C 01 4E 70 2E ED 
   1277      7396.581 DT     07A2 Rx 8  29 3D 36 BE 74 00 40 00 
   1278      7396.686 DT     07A2 Rx 8  2A 00 39 32 C3 00 8A 08 
   1279      7396.778 DT     07A2 Rx 8  2B A0 02 AA 22 8C 00 3D 
   1280      7396.868 DT     07A2 Rx 8  2C 36 FE 13 39 31 01 00 
   1281      7396.957 DT     07A2 Rx 8  2D 3D 34 FE 24 AA 20 8C 
   1282      7397.048 DT     07A2 Rx 8  2E 00 39 31 3E 00 36 36 
   1283      7397.137 DT     07A2 Rx 8  2F 81 74 F0 3F 00 00 AA 
   1284      7397.324 DT     07A2 Rx 8  20 20 0C 01 8C 25 F0 90 
   1285      7397.418 DT     07A2 Rx 8  21 14 BD 24 06 EA FF B9 
   1286      7397.507 DT     07A2 Rx 8  22 61 C3 71 80 3E 00 00 
   1287      7397.659 DT     07A2 Rx 8  23 3D 31 3E 00 31 36 81 
   1288      7397.753 DT     07A2 Rx 8  24 74 70 01 00 00 AA 20 
   1289      7397.843 DT     07A2 Rx 8  25 8C 00 D0 C6 3D 32 FE 
   1290      7397.932 DT     07A2 Rx 8  26 00 35 36 83 74 00 C0 
   1291      7398.021 DT     07A2 Rx 8  27 00 00 32 08 A0 02 AA 
   1292      7398.109 DT     07A2 Rx 8  28 22 8C 00 3D 31 3E 24 
   1293      7398.196 DT     07A2 Rx 8  29 39 31 3E 00 36 36 81 
   1294      7398.387 DT     07A2 Rx 8  2A 74 F0 3F 00 00 AA 20 
   1295      7398.480 DT     07A2 Rx 8  2B 0C 01 D0 C6 17 09 32 
   1296      7398.568 DT     07A2 Rx 8  2C 20 2C 71 8C 70 AC 70 
   1297      7398.657 DT     07A2 Rx 8  2D 02 42 0A 0A 20 00 22 
   1298      7398.751 DT     07A2 Rx 8  2E 43 D0 C6 0C 70 2C 70 
   1299      7398.839 DT     07A2 Rx 8  2F D0 C6 E8 C2 28 47 DA 
   1300      7398.928 DT     07A2 Rx 8  20 08 E0 00 10 40 02 42 
   1301      7399.016 DT     07A2 Rx 8  21 E1 43 08 46 56 0E 60 
   1302      7399.103 DT     07A2 Rx 8  22 02 28 45 0C 70 3D 35 
   1303      7399.191 DT     07A2 Rx 8  23 BE 13 35 36 01 70 F0 
   1304      7399.279 DT     07A2 Rx 8  24 BF 00 00 CA 20 69 00 
   1305      7399.367 DT     07A2 Rx 8  25 14 70 AA 20 8C 00 1C 
   1306      7399.454 DT     07A2 Rx 8  26 76 3C 75 C1 40 A1 41 
   1307      7399.542 DT     07A2 Rx 8  27 C8 C6 E2 C2 7E 08 E0 
   1308      7399.628 DT     07A2 Rx 8  28 00 08 45 01 30 81 0F 
   1309      7399.721 DT     07A2 Rx 8  29 80 BF 00 00 04 30 40 
   1310      7399.809 DT     07A2 Rx 8  2A 83 CA 20 49 00 C2 C6 
   1311      7399.896 DT     07A2 Rx 8  2B E0 78 E8 C2 68 47 50 
   1312      7399.982 DT     07A2 Rx 8  2C 40 28 45 0A 0E 60 02 
   1313      7400.070 DT     07A2 Rx 8  2D 08 46 0B F6 02 40 42 
   1314      7400.158 DT     07A2 Rx 8  2E 0C E0 01 E1 41 14 70 
   1315      7400.246 DT     07A2 Rx 8  2F CA 26 01 14 CA 25 C1 
   1316      7400.332 DT     07A2 Rx 8  20 13 C1 40 A1 41 C8 C6 
   1317      7400.419 DT     07A2 Rx 8  21 E4 C2 28 46 08 45 04 
   1318      7400.506 DT     07A2 Rx 8  22 30 40 80 88 F7 F2 0A 
   1319      7400.593 DT     07A2 Rx 8  23 20 00 C1 40 14 70 CA 
   1320      7400.708 DT     07A2 Rx 8  24 25 81 13 A1 40 C4 C6 
   1321      7400.842 DT     07A2 Rx 8  25 E6 C0 50 20 C2 07 28 
   1322      7400.938 DT     07A2 Rx 8  26 47 2D 0A 85 0F 80 7F 
   1323      7401.030 DT     07A2 Rx 8  27 00 00 50 27 CC 17 29 
   1324      7401.120 DT     07A2 Rx 8  28 6C 21 09 85 0F 80 7F 
   1325      7401.210 DT     07A2 Rx 8  29 00 00 91 72 89 F7 CB 
   1326      7401.298 DT     07A2 Rx 8  2A 45 FD 20 78 06 0B F4 
   1327      7401.386 DT     07A2 Rx 8  2B 3D B8 44 20 00 01 A0 
   1328      7401.474 DT     07A2 Rx 8  2C 60 C6 C4 00 30 C0 03 
   1329      7401.561 DT     07A2 Rx 8  2D 07 30 00 00 C6 C4 CB 
   1330      7401.649 DT     07A2 Rx 8  2E 43 7F 00 FF FF 1D 0B 
   1331      7401.808 DT     07A2 Rx 8  2F A4 10 40 28 03 02 1D 
   1332      7401.907 DT     07A2 Rx 8  20 0B 72 00 8A 21 BE 00 
   1333      7401.999 DT     07A2 Rx 8  21 7B 7B 01 0B 73 00 24 
   1334      7402.090 DT     07A2 Rx 8  22 77 0D 00 00 00 41 2A 
   1335      7402.181 DT     07A2 Rx 8  23 C1 05 80 21 7E 00 1D 
   1336      7402.301 DT     07A2 Rx 8  24 0B 24 13 40 2F 03 92 
   1337      7402.397 DT     07A2 Rx 8  25 1C 00 24 00 8A 26 BE 
   1338      7402.491 DT     07A2 Rx 8  26 10 2F 23 C0 80 FC 07 
   1339      7402.582 DT     07A2 Rx 8  27 E3 FF C5 77 06 F0 41 
   1340      7402.673 DT     07A2 Rx 8  28 2C CE 15 80 26 7E 10 
   1341      7402.847 DT     07A2 Rx 8  29 8C 21 BE 80 85 F6 53 
   1342      7403.042 DT     07A2 Rx 8  2A 20 83 05 97 BB 06 F0 
   1343      7403.140 DT     07A2 Rx 8  2B 8A 23 BE 00 22 7B 00 
   1344      7403.234 DT     07A2 Rx 8  2C 2A C3 00 8C 26 BE 90 
   1345      7403.326 DT     07A2 Rx 8  2D 85 F6 53 27 8C 15 97 
   1346      7403.416 DT     07A2 Rx 8  2E BC 05 F0 8A 22 BE 00 
   1347      7403.611 DT     07A2 Rx 8  2F C2 7A 58 7C 6C 20 8F 
   1348      7403.785 DT     07A2 Rx 8  20 07 D2 49 91 4B 09 EA 
   1349      7403.883 DT     07A2 Rx 8  21 34 70 84 F6 20 43 B1 
   1350      7403.975 DT     07A2 Rx 8  22 F3 44 77 7B 7B F8 F1 
   1351      7404.066 DT     07A2 Rx 8  23 34 70 CA 23 4A 00 53 
   1352      7404.211 DT     07A2 Rx 8  24 0B 10 80 17 0B E2 10 
   1353      7404.312 DT     07A2 Rx 8  25 0A 21 C0 00 7B 79 D3 
   1354      7404.404 DT     07A2 Rx 8  26 73 40 00 00 00 C5 77 
   1355      7404.498 DT     07A2 Rx 8  27 20 43 BA F6 8C 26 BE 
   1356      7404.598 DT     07A2 Rx 8  28 90 8C F6 17 BE C3 71 
   1357      7404.688 DT     07A2 Rx 8  29 80 FF 00 00 00 26 80 
   1358      7404.845 DT     07A2 Rx 8  2A 1F 80 3F 00 00 25 78 
   1359      7404.959 DT     07A2 Rx 8  2B 07 F0 8A 20 BE 00 C2 
   1360      7405.064 DT     07A2 Rx 8  2C 78 01 29 00 00 E5 78 
   1361      7405.157 DT     07A2 Rx 8  2D C6 C4 E0 78 E6 C3 E8 
   1362      7405.248 DT     07A2 Rx 8  2E 46 C8 47 42 24 1C 38 
   1363      7405.340 DT     07A2 Rx 8  2F 6C 24 9C 30 8B 45 00 
   1364      7405.432 DT     07A2 Rx 8  20 A5 A1 40 C7 A5 E6 A5 
   1365      7405.523 DT     07A2 Rx 8  21 14 1C 40 31 10 1C 00 
   1366      7405.612 DT     07A2 Rx 8  22 31 63 A5 42 A5 5A 0F 
   1367      7405.701 DT     07A2 Rx 8  23 A0 00 21 A5 05 E8 C7 
   1368      7405.791 DT     07A2 Rx 8  24 85 E6 85 06 F0 3E 0A 
   1369      7406.145 DT     07A2 Rx 8  25 E0 02 18 13 0D 30 A0 
   1370      7406.348 DT     07A2 Rx 8  26 A0 E1 40 C1 41 C6 C7 
   1371      7406.469 DT     07A2 Rx 8  27 E0 78 F1 C0 A2 C1 00 
   1372      7406.562 DT     07A2 Rx 8  28 41 22 DC 0C 73 CC 70 
   1373      7406.654 DT     07A2 Rx 8  29 7C 17 07 70 41 C4 EB 
   1374      7406.743 DT     07A2 Rx 8  2A FF A2 C0 D1 C0 E0 7E 
   1375      7406.853 DT     07A2 Rx 8  2B E0 78 F1 C0 A2 C1 00 
   1376      7406.979 DT     07A2 Rx 8  2C 41 22 DC 0C 74 CC 70 
   1377      7407.073 DT     07A2 Rx 8  2D EC 70 41 C4 E4 FF A2 
   1378      7407.165 DT     07A2 Rx 8  2E C0 D1 C0 E0 7E F1 C0 
   1379      7407.256 DT     07A2 Rx 8  2F A2 C1 00 41 21 DC 0C 
   1380      7407.347 DT     07A2 Rx 8  20 71 CC 70 BC 17 07 70 
   1381      7407.437 DT     07A2 Rx 8  21 41 C4 DE FF A2 C0 D1 
   1382      7407.526 DT     07A2 Rx 8  22 C0 E0 7E E0 78 E8 C2 
   1383      7407.614 DT     07A2 Rx 8  23 A2 C1 10 40 40 40 2E 
   1384      7407.702 DT     07A2 Rx 8  24 0D 60 02 68 45 08 47 
   1385      7407.790 DT     07A2 Rx 8  25 A1 40 26 0D 60 02 28 
   1386      7407.884 DT     07A2 Rx 8  26 46 20 45 22 D9 00 44 
   1387      7407.973 DT     07A2 Rx 8  27 0C 73 CC 70 18 17 07 
   1388      7408.221 DT     07A2 Rx 8  28 70 41 C1 02 41 E1 42 
   1389      7408.378 DT     07A2 Rx 8  29 C1 43 D0 FF 5E 0C 40 
   1390      7408.476 DT     07A2 Rx 8  2A 02 A2 C0 C8 C6 00 00 
   1391      7408.617 DT     07A2 Rx 8  2B F0 7F E8 C2 A2 C1 10 
   1392      7408.955 DT     07A2 Rx 8  2C 40 40 40 F2 0C 60 02 
   1393      7409.271 DT     07A2 Rx 8  2D 68 45 08 47 A1 40 EA 
   1394      7409.573 DT     07A2 Rx 8  2E 0C 60 02 28 46 20 45 
   1395      7409.779 DT     07A2 Rx 8  2F 22 D9 00 44 0C 74 CC 
   1396      7410.058 DT     07A2 Rx 8  20 70 EC 70 41 C1 02 41 
   1397      7410.203 DT     07A2 Rx 8  21 E1 42 C1 43 C1 FF 26 
   1398      7410.306 DT     07A2 Rx 8  22 0C 40 02 A2 C0 C8 C6 
   1399      7410.400 DT     07A2 Rx 8  23 E0 78 E8 C2 A2 C1 10 
   1400      7410.521 DT     07A2 Rx 8  24 40 40 40 BA 0C 60 02 
   1401      7410.620 DT     07A2 Rx 8  25 68 45 08 47 A1 40 B2 
   1402      7410.712 DT     07A2 Rx 8  26 0C 60 02 28 46 20 45 
   1403      7410.804 DT     07A2 Rx 8  27 21 D9 00 44 0C 71 CC 
   1404      7410.901 DT     07A2 Rx 8  28 70 18 17 07 70 41 C1 
   1405      7410.991 DT     07A2 Rx 8  29 02 41 E1 42 C1 43 B3 
   1406      7411.083 DT     07A2 Rx 8  2A FF EA 0B 40 02 A2 C0 
   1407      7411.173 DT     07A2 Rx 8  2B C8 C6 00 00 F8 7F E4 
   1408      7411.319 DT     07A2 Rx 8  2C C0 A1 82 23 0B B2 00 
   1409      7411.434 DT     07A2 Rx 8  2D C0 82 64 77 08 12 0B 
   1410      7411.529 DT     07A2 Rx 8  2E 02 81 82 3D 35 BE 13 
   1411      7411.619 DT     07A2 Rx 8  2F 31 31 3E 00 36 34 CD 
   1412      7411.805 DT     07A2 Rx 8  20 12 8D 23 3F 0E AA 26 
   1413      7411.904 DT     07A2 Rx 8  21 0C 11 C1 40 A1 41 C4 
   1414      7411.996 DT     07A2 Rx 8  22 C4 37 0A 70 00 80 81 
   1415      7412.086 DT     07A2 Rx 8  23 33 0C 81 1F 80 3F 00 
   1416      7412.176 DT     07A2 Rx 8  24 00 61 81 41 0A F2 00 
   1417      7412.265 DT     07A2 Rx 8  25 01 33 0C 00 42 22 82 
   1418      7412.354 DT     07A2 Rx 8  26 00 0A 24 80 70 40 21 
   1419      7412.443 DT     07A2 Rx 8  27 03 02 A8 20 00 02 04 
   1420      7412.531 DT     07A2 Rx 8  28 13 02 04 00 34 01 10 
   1421      7412.619 DT     07A2 Rx 8  29 01 31 8C 00 0E F0 1D 
   1422      7412.707 DT     07A2 Rx 8  2A 0A B2 00 44 77 0A 24 
   1423      7412.869 DT     07A2 Rx 8  2B 80 70 A8 20 00 02 04 
   1424      7412.994 DT     07A2 Rx 8  2C 11 03 02 00 34 02 10 
   1425      7413.090 DT     07A2 Rx 8  2D 01 33 8C 00 E0 7F 81 
   1426      7413.199 DT     07A2 Rx 8  2E 40 FF DA 17 BA 53 20 
   1427      7413.327 DT     07A2 Rx 8  2F 81 05 44 78 79 21 01 
   1428      7413.448 DT     07A2 Rx 8  20 00 38 20 80 00 E0 7F 
   1429      7413.543 DT     07A2 Rx 8  21 24 78 E0 78 FA C2 FC 
   1430      7413.633 DT     07A2 Rx 8  22 1C C8 B6 50 21 D4 07 
   1431      7413.724 DT     07A2 Rx 8  23 30 45 10 42 05 24 3E 
   1432      7413.830 DT     07A2 Rx 8  24 A0 70 40 50 41 0A F4 
   1433      7413.958 DT     07A2 Rx 8  25 50 20 C0 27 05 20 7E 
   1434      7414.115 DT     07A2 Rx 8  26 84 AD 70 1A F4 A0 D7 
   1435      7414.224 DT     07A2 Rx 8  27 57 F0 C3 40 F0 7F 00 
   1436      7414.317 DT     07A2 Rx 8  28 00 06 20 3E 84 27 F4 
   1437      7414.408 DT     07A2 Rx 8  29 53 20 FE A4 2C F2 32 
   1438      7414.498 DT     07A2 Rx 8  2A D0 2C 72 42 42 82 43 
   1439      7414.588 DT     07A2 Rx 8  2B 0A 24 40 04 5A 0E EF 
   1440      7414.680 DT     07A2 Rx 8  2C FF 0A 25 00 04 2A 45 
   1441      7414.770 DT     07A2 Rx 8  2D 0A 47 41 F0 4C 70 6C 
   1442      7414.858 DT     07A2 Rx 8  2E 70 22 40 7E 0A 60 02 
   1443      7414.946 DT     07A2 Rx 8  2F 02 41 ED 70 56 F7 27 
   1444      7415.090 DT     07A2 Rx 8  20 D0 2C 72 42 42 82 43 
   1445      7415.212 DT     07A2 Rx 8  21 0A 24 40 04 2E 0E EF 
   1446      7415.307 DT     07A2 Rx 8  22 FF 0A 25 00 04 08 45 
   1447      7415.398 DT     07A2 Rx 8  23 28 47 08 F0 50 20 D3 
   1448      7415.488 DT     07A2 Rx 8  24 27 89 D7 05 23 7E A4 
   1449      7415.578 DT     07A2 Rx 8  25 11 F4 AD 70 01 05 00 
   1450      7415.668 DT     07A2 Rx 8  26 00 85 D7 AD 70 4C 70 
   1451      7415.758 DT     07A2 Rx 8  27 42 40 82 41 3F 08 32 
   1452      7415.846 DT     07A2 Rx 8  28 20 E1 43 36 0A 40 02 
   1453      7415.934 DT     07A2 Rx 8  29 5C F7 ED 70 15 F0 4C 
   1454      7416.035 DT     07A2 Rx 8  2A 70 22 40 02 41 D2 09 
   1455      7416.156 DT     07A2 Rx 8  2B 60 02 E1 43 28 F4 4C 
   1456      7416.250 DT     07A2 Rx 8  2C 70 6C 70 A2 41 1A 0A 
   1457      7416.341 DT     07A2 Rx 8  2D 60 02 42 40 6F 20 0B 
   1458      7416.431 DT     07A2 Rx 8  2E 00 E0 B8 CF 24 E2 27 
   1459      7416.520 DT     07A2 Rx 8  2F 4A 45 8A 47 BD 04 00 
   1460      7416.608 DT     07A2 Rx 8  20 00 02 0A 40 02 27 F6 
   1461      7416.697 DT     07A2 Rx 8  21 4C 70 42 40 82 41 A2 
   1462      7416.786 DT     07A2 Rx 8  22 09 60 02 E1 43 F5 F3 
   1463      7416.874 DT     07A2 Rx 8  23 06 D0 2C 72 42 42 82 
   1464      7416.962 DT     07A2 Rx 8  24 43 0A 24 40 04 76 0D 
   1465      7417.085 DT     07A2 Rx 8  25 EF FF 0A 25 00 04 BE 
   1466      7417.185 DT     07A2 Rx 8  26 F1 80 06 FD 20 4C 70 
   1467      7417.280 DT     07A2 Rx 8  27 C3 43 E0 41 00 00 22 
   1468      7417.375 DT     07A2 Rx 8  28 40 CA 09 60 02 02 41 
   1469      7417.465 DT     07A2 Rx 8  29 52 00 2A 00 4C 70 95 
   1470      7417.554 DT     07A2 Rx 8  2A BA C3 43 E0 C1 00 00 
   1471      7417.644 DT     07A2 Rx 8  2B 22 40 B2 09 60 02 02 
   1472      7417.732 DT     07A2 Rx 8  2C 41 3E 00 2E 00 22 40 
   1473      7417.820 DT     07A2 Rx 8  2D C6 08 A0 02 02 41 08 
   1474      7417.908 DT     07A2 Rx 8  2E 46 4C 70 6C 70 42 40 
   1475      7417.997 DT     07A2 Rx 8  2F 9A 09 60 02 A2 41 54 
   1476      7418.086 DT     07A2 Rx 8  20 00 26 00 CE 70 19 EE 
   1477      7418.174 DT     07A2 Rx 8  21 A2 0A 60 02 48 36 80 
   1478      7418.262 DT     07A2 Rx 8  22 10 22 42 2E 09 60 02 
   1479      7418.349 DT     07A2 Rx 8  23 02 43 10 F4 3D 0E 1E 
   1480      7418.436 DT     07A2 Rx 8  24 10 CE 71 1A F0 4C 70 
   1481      7418.523 DT     07A2 Rx 8  25 6C 70 42 40 6A 09 60 
   1482      7418.609 DT     07A2 Rx 8  26 02 A2 41 CD 70 CE 70 
   1483      7418.696 DT     07A2 Rx 8  27 84 F7 10 F0 CD 70 22 
   1484      7418.783 DT     07A2 Rx 8  28 40 D2 0B A0 00 02 41 
   1485      7418.871 DT     07A2 Rx 8  29 22 42 FE 08 60 02 02 
   1486      7418.958 DT     07A2 Rx 8  2A 43 6C F5 22 40 5E 0B 
   1487      7419.078 DT     07A2 Rx 8  2B A0 00 02 41 10 46 43 
   1488      7419.181 DT     07A2 Rx 8  2C D7 4C 70 42 40 82 41 
   1489      7419.273 DT     07A2 Rx 8  2D E2 08 60 02 E1 43 AD 
   1490      7419.364 DT     07A2 Rx 8  2E 70 AC F2 41 2C 00 25 
   1491      7419.453 DT     07A2 Rx 8  2F 8A 21 B0 00 00 20 57 
   1492      7419.542 DT     07A2 Rx 8  20 80 2A F2 E6 0F 60 02 
   1493      7419.631 DT     07A2 Rx 8  21 80 20 70 00 3D 31 3E 
   1494      7419.722 DT     07A2 Rx 8  22 00 31 30 41 24 AA 20 
   1495      7419.811 DT     07A2 Rx 8  23 8C 00 BF B9 C3 43 90 
   1496      7419.900 DT     07A2 Rx 8  24 40 00 00 02 09 60 02 
   1497      7451.939 DT     07AA Rx 8  02 76 05 55 55 55 55 55 
   1498      7452.961 DT     07A2 Rx 8  18 02 36 06 4C 70 D8 F6 
   1499      7454.006 DT     07AA Rx 8  30 00 00 55 55 55 55 55 
   1500      7454.308 DT     07A2 Rx 8  21 4C 70 6C 70 22 40 F6 
   1501      7454.419 DT     07A2 Rx 8  22 08 60 02 02 41 44 F7 
   1502      7454.520 DT     07A2 Rx 8  23 F6 70 F2 02 09 00 4C 
   1503      7454.625 DT     07A2 Rx 8  24 70 6C 70 22 40 E2 08 
   1504      7454.754 DT     07A2 Rx 8  25 60 02 02 41 EE 06 EC 
   1505      7454.859 DT     07A2 Rx 8  26 FF F6 70 DE 02 0C 00 
   1506      7454.963 DT     07A2 Rx 8  27 73 F1 4C 70 C3 43 A0 
   1507      7455.069 DT     07A2 Rx 8  28 40 00 00 62 41 C6 08 
   1508      7455.183 DT     07A2 Rx 8  29 60 02 22 40 42 00 0B 
   1509      7455.299 DT     07A2 Rx 8  2A 00 3D 34 BE 24 35 36 
   1510      7455.417 DT     07A2 Rx 8  2B 41 73 F0 BF 00 00 AA 
   1511      7455.527 DT     07A2 Rx 8  2C 20 8C 00 C3 42 E3 88 
   1512      7455.659 DT     07A2 Rx 8  2D F1 68 C3 43 D4 3E B5 
   1513      7455.766 DT     07A2 Rx 8  2E F8 9E 08 60 02 BF B9 
   1514      7455.878 DT     07A2 Rx 8  2F 4F F7 42 40 AE 08 E0 
   1515      7455.989 DT     07A2 Rx 8  20 01 82 41 3D 31 3E 00 
   1516      7456.098 DT     07A2 Rx 8  21 31 30 41 24 A6 0F AF 
   1517      7456.200 DT     07A2 Rx 8  22 FF AA 20 8C 00 10 F1 
   1518      7456.309 DT     07A2 Rx 8  23 46 0F 60 02 C1 40 22 
   1519      7456.420 DT     07A2 Rx 8  24 42 22 08 60 02 02 43 
   1520      7456.517 DT     07A2 Rx 8  25 20 F4 2F 23 89 83 0E 
   1521      7456.611 DT     07A2 Rx 8  26 D1 3D F2 4C 70 0A 20 
   1522      7456.706 DT     07A2 Rx 8  27 40 00 3D 34 BE 24 31 
   1523      7456.805 DT     07A2 Rx 8  28 30 8F 00 AA 25 8C 10 
   1524      7456.902 DT     07A2 Rx 8  29 31 34 94 24 E0 BB AA 
   1525      7456.999 DT     07A2 Rx 8  2A 22 8C 20 CA 27 01 10 
   1526      7457.103 DT     07A2 Rx 8  2B CA 25 81 10 2F 23 C2 
   1527      7457.202 DT     07A2 Rx 8  2C 80 E1 40 A1 42 EE F5 
   1528      7457.300 DT     07A2 Rx 8  2D 27 F0 E0 78 00 00 F0 
   1529      7457.400 DT     07A2 Rx 8  2E 3F 53 24 CE 24 CB 45 
   1530      7457.499 DT     07A2 Rx 8  2F E0 3F 00 00 A5 7E 4C 
   1531      7457.671 DT     07A2 Rx 8  20 70 42 40 C1 41 1E 08 
   1532      7457.837 DT     07A2 Rx 8  21 60 02 A1 43 44 00 26 
